 v-sweep         @M1[id]         @M1[vdsat]      @M1[cgs]        @M1[cgg]        @m1[gm]         @m1[gds]        @m1[gmbs]       @m1[vth]       
 5.00000000e-02  1.56984218e-07  4.22989648e-02 -1.08276570e-16  8.32711705e-14  4.32762774e-06  8.46055832e-07  1.12603588e-06  3.78096804e-01 
 6.00000000e-02  2.15540431e-07  4.23047066e-02 -1.09805503e-16  8.27832097e-14  5.92427244e-06  6.86903973e-07  1.53225861e-06  3.78068386e-01 
 7.00000000e-02  2.90877259e-07  4.23122587e-02 -1.12124574e-16  8.23042458e-14  7.96816004e-06  5.82061453e-07  2.04895221e-06  3.78039969e-01 
 8.00000000e-02  3.88667352e-07  4.23221728e-02 -1.15520909e-16  8.18342772e-14  1.06066791e-05  5.20625068e-07  2.71198440e-06  3.78011551e-01 
 9.00000000e-02  5.16126595e-07  4.23351622e-02 -1.20386011e-16  8.13733941e-14  1.40249846e-05  4.92092319e-07  3.56604330e-06  3.77983134e-01 
 1.00000000e-01  6.82464557e-07  4.23521448e-02 -1.27253673e-16  8.09218083e-14  1.84562150e-05  4.89459186e-07  4.66701402e-06  3.77954716e-01 
 1.10000000e-01  8.99461621e-07  4.23742978e-02 -1.36851004e-16  8.04798936e-14  2.41942807e-05  5.09055865e-07  6.08493056e-06  3.77926299e-01 
 1.20000000e-01  1.18218034e-06  4.24031239e-02 -1.50166911e-16  8.00482404e-14  3.16091138e-05  5.49779811e-07  7.90746616e-06  3.77897881e-01 
 1.30000000e-01  1.54983562e-06  4.24405308e-02 -1.68543436e-16  7.96277283e-14  4.11646601e-05  6.12496755e-07  1.02440256e-05  3.77869464e-01 
 1.40000000e-01  2.02685553e-06  4.24889271e-02 -1.93796499e-16  7.92196236e-14  5.34400171e-05  6.99704857e-07  1.32305321e-05  3.77841046e-01 
 1.50000000e-01  2.64416886e-06  4.25513338e-02 -2.28373566e-16  7.88257054e-14  6.91541637e-05  8.15406296e-07  1.70350123e-05  3.77812629e-01 
 1.60000000e-01  3.44075940e-06  4.26315124e-02 -2.75556216e-16  7.84484292e-14  8.91947888e-05  9.65124936e-07  2.18641000e-05  3.77784212e-01 
 1.70000000e-01  4.46553233e-06  4.27341095e-02 -3.39714813e-16  7.80911330e-14  1.14651843e-04  1.15602850e-06  2.79706074e-05  3.77755794e-01 
 1.80000000e-01  5.77954470e-06  4.28648133e-02 -4.26619952e-16  7.77582895e-14  1.46856640e-04  1.39713122e-06  3.56623653e-05  3.77727377e-01 
 1.90000000e-01  7.45866162e-06  4.30305195e-02 -5.43810655e-16  7.74558065e-14  1.87427643e-04  1.69956484e-06  4.53126013e-05  3.77698959e-01 
 2.00000000e-01  9.59671278e-06  4.32394975e-02 -7.01013891e-16  7.71913697e-14  2.38324413e-04  2.07691343e-06  5.73722144e-05  3.77670542e-01 
 2.10000000e-01  1.23092405e-05  4.35015467e-02 -9.10609334e-16  7.69748257e-14  3.01911582e-04  2.54561216e-06  7.23843776e-05  3.77642125e-01 
 2.20000000e-01  1.57379505e-05  4.38281299e-02 -1.18814910e-15  7.68186119e-14  3.81034839e-04  3.12541314e-06  9.10019315e-05  3.77613707e-01 
 2.30000000e-01  2.00559946e-05  4.42324676e-02 -1.55299316e-15  7.67382830e-14  4.79110586e-04  3.83992113e-06  1.14007943e-04  3.77585290e-01 
 2.40000000e-01  2.54742264e-05  4.47295748e-02 -2.02922281e-15  7.67532648e-14  6.00229666e-04  4.71719929e-06  1.42339509e-04  3.77556873e-01 
 2.50000000e-01  3.22485644e-05  4.53362214e-02 -2.64713941e-15  7.68880826e-14  7.49273035e-04  5.79043692e-06  1.77114286e-04  3.77528456e-01 
 2.60000000e-01  4.06885531e-05  4.60708005e-02 -3.44578736e-15  7.71744186e-14  9.32032960e-04  7.09865767e-06  2.19658282e-04  3.77500038e-01 
 2.70000000e-01  5.11671223e-05  4.69530884e-02 -4.47696405e-15  7.76543775e-14  1.15532743e-03  8.68742620e-06  2.71532058e-04  3.77471621e-01 
 2.80000000e-01  6.41313863e-05  4.80038913e-02 -5.81101260e-15  7.83852054e-14  1.42708821e-03  1.06094848e-05  3.34550940e-04  3.77443204e-01 
 2.90000000e-01  8.01140870e-05  4.92445756e-02 -7.54432234e-15  7.94454155e-14  1.75639576e-03  1.29252226e-05  4.10793157e-04  3.77414787e-01 
 3.00000000e-01  9.97449910e-05  5.06964935e-02 -9.80791875e-15  8.09418333e-14  2.15342860e-03  1.57028550e-05  5.02588664e-04  3.77386370e-01 
 3.10000000e-01  1.23761210e-04  5.23803218e-02 -1.27757895e-14  8.30164770e-14  2.62929322e-03  1.90181715e-05  6.12481076e-04  3.77357953e-01 
 3.20000000e-01  1.53015094e-04  5.43153455e-02 -1.66705910e-14  8.58513670e-14  3.19570565e-03  2.29537187e-05  7.43156333e-04  3.77329535e-01 
 3.30000000e-01  1.88477584e-04  5.65186905e-02 -2.17508034e-14  8.96560273e-14  3.86397235e-03  2.75972358e-05  8.97332384e-04  3.77301118e-01 
 3.40000000e-01  2.31216347e-04  5.90034937e-02 -2.82797064e-14  9.46396328e-14  4.64283653e-03  3.30367603e-05  1.07753279e-03  3.77272701e-01 
 3.50000000e-01  2.82404071e-04  6.17795731e-02 -3.66114176e-14  1.01101970e-13  5.54345300e-03  3.93603911e-05  1.28599954e-03  3.77244284e-01 
 3.60000000e-01  3.43306620e-04  6.48532001e-02 -4.70112669e-14  1.09262835e-13  6.57320716e-03  4.66535662e-05  1.52453265e-03  3.77215867e-01 
 3.70000000e-01  4.15250407e-04  6.82263361e-02 -5.96333251e-14  1.19252332e-13  7.73653697e-03  5.49943924e-05  1.79428390e-03  3.77187450e-01 
 3.80000000e-01  4.99589419e-04  7.18965088e-02 -7.44449534e-14  1.31048935e-13  9.03428030e-03  6.44500217e-05  2.09560977e-03  3.77159033e-01 
 3.90000000e-01  5.97666710e-04  7.58568938e-02 -9.11688970e-14  1.44431485e-13  1.04632431e-02  7.50734334e-05  2.42797329e-03  3.77130616e-01 
 4.00000000e-01  7.10772961e-04  8.00965928e-02 -1.09274593e-13  1.58971055e-13  1.20160584e-02  8.69009433e-05  2.78991016e-03  3.77102199e-01 
 4.10000000e-01  8.40105212e-04  8.46010882e-02 -1.28039405e-13  1.74079935e-13  1.36813677e-02  9.99506797e-05  3.17906613e-03  3.77073782e-01 
 4.20000000e-01  9.86728987e-04  8.93528356e-02 -1.46670273e-13  1.89110336e-13  1.54443145e-02  1.14222148e-04  3.59230304e-03  3.77045365e-01 
 4.30000000e-01  1.15154670e-03  9.43319472e-02 -1.64444315e-13  2.03469265e-13  1.72872948e-02  1.29696873e-04  4.02586133e-03  3.77016949e-01 
 4.40000000e-01  1.33527451e-03  9.95169175e-02 -1.80817736e-13  2.16708134e-13  1.91908801e-02  1.46339975e-04  4.47556033e-03  3.76988532e-01 
 4.50000000e-01  1.53842891e-03  1.04885341e-01 -1.95472624e-13  2.28561964e-13  2.11348104e-02  1.64102466e-04  4.93701381e-03  3.76960115e-01 
 4.60000000e-01  1.76132310e-03  1.10414582e-01 -2.08303383e-13  2.38939239e-13  2.30989583e-02  1.82923986e-04  5.40583927e-03  3.76931698e-01 
 4.70000000e-01  2.00407265e-03  1.16082364e-01 -2.19366186e-13  2.47881249e-13  2.50641795e-02  2.02735707e-04  5.87784284e-03  3.76903281e-01 
 4.80000000e-01  2.26660880e-03  1.21867255e-01 -2.28818135e-13  2.55512700e-13  2.70129932e-02  2.23463170e-04  6.34916726e-03  3.76874864e-01 
 4.90000000e-01  2.54869763e-03  1.27749052e-01 -2.36864216e-13  2.61998407e-13  2.89300632e-02  2.45028882e-04  6.81639725e-03  3.76846447e-01 
 5.00000000e-01  2.84996303e-03  1.33709049e-01 -2.43719409e-13  2.67512215e-13  3.08024773e-02  2.67354537e-04  7.27662149e-03  3.76818031e-01 
