 v-sweep         @M1[id]         @M1[vdsat]      @M1[cgs]        @M1[cgg]        @m1[gm]         @m1[gds]        @m1[gmbs]       @m1[vth]       
 5.00000000e-02  2.89434483e-07  4.18227014e-02 -5.89993134e-17  4.52479100e-14  7.97786793e-06  1.64112693e-06  2.07578816e-06  3.77712897e-01 
 6.00000000e-02  3.98556786e-07  4.18280343e-02 -5.99024176e-17  4.49828133e-14  1.09526111e-05  1.39267411e-06  2.83272433e-06  3.77601169e-01 
 7.00000000e-02  5.39514235e-07  4.18351505e-02 -6.12661278e-17  4.47226274e-14  1.47756363e-05  1.24959933e-06  3.79927383e-06  3.77489441e-01 
 8.00000000e-02  7.23110217e-07  4.18445985e-02 -6.32594633e-17  4.44673609e-14  1.97273685e-05  1.19495008e-06  5.04365601e-06  3.77377714e-01 
 9.00000000e-02  9.63135009e-07  4.18570883e-02 -6.61135370e-17  4.42170763e-14  2.61612431e-05  1.21379364e-06  6.65116035e-06  3.77265986e-01 
 1.00000000e-01  1.27724475e-06  4.18735356e-02 -7.01442817e-17  4.39719076e-14  3.45235816e-05  1.29842181e-06  8.72876460e-06  3.77154258e-01 
 1.10000000e-01  1.68808334e-06  4.18951166e-02 -7.57831312e-17  4.37320846e-14  4.53783203e-05  1.44816884e-06  1.14108367e-05  3.77042530e-01 
 1.20000000e-01  2.22466682e-06  4.19233347e-02 -8.36182910e-17  4.34979654e-14  5.94364824e-05  1.66833861e-06  1.48658754e-05  3.76930803e-01 
 1.30000000e-01  2.92407908e-06  4.19601014e-02 -9.44498905e-17  4.32700805e-14  7.75909328e-05  1.96950934e-06  1.93044101e-05  3.76819075e-01 
 1.40000000e-01  3.83354021e-06  4.20078326e-02 -1.09363007e-16  4.30491907e-14  1.00957129e-04  2.36736309e-06  2.49882240e-05  3.76707347e-01 
 1.50000000e-01  5.01291606e-06  4.20695608e-02 -1.29823134e-16  4.28363636e-14  1.30920630e-04  2.88294500e-06  3.22410762e-05  3.76595620e-01 
 1.60000000e-01  6.53774430e-06  4.21490644e-02 -1.57798896e-16  4.26330716e-14  1.69192185e-04  3.54325294e-06  4.14611205e-05  3.76483892e-01 
 1.70000000e-01  8.50286068e-06  4.22510114e-02 -1.95916291e-16  4.24413163e-14  2.17871408e-04  4.38209487e-06  5.31352622e-05  3.76372164e-01 
 1.80000000e-01  1.10267200e-05  4.23811155e-02 -2.47647098e-16  4.22637798e-14  2.79520333e-04  5.44118421e-06  6.78557701e-05  3.76260437e-01 
 1.90000000e-01  1.42565210e-05  4.25462986e-02 -3.17531197e-16  4.21040051e-14  3.57248602e-04  6.77146754e-06  8.63395732e-05  3.76148709e-01 
 2.00000000e-01  1.83742658e-05  4.27548511e-02 -4.11429517e-16  4.19666018e-14  4.54812607e-04  8.43469600e-06  1.09450792e-04  3.76036982e-01 
 2.10000000e-01  2.36039077e-05  4.30165787e-02 -5.36804847e-16  4.18574756e-14  5.76731273e-04  1.05052633e-05  1.38227149e-04  3.75925255e-01 
 2.20000000e-01  3.02197723e-05  4.33429209e-02 -7.03039761e-16  4.17840896e-14  7.28421140e-04  1.30723356e-05  1.73910861e-04  3.75813527e-01 
 2.30000000e-01  3.85564547e-05  4.37470232e-02 -9.21835840e-16  4.17557930e-14  9.16352154e-04  1.62422848e-05  2.17984337e-04  3.75701800e-01 
 2.40000000e-01  4.90203995e-05  4.42437444e-02 -1.20780462e-15  4.17843041e-14  1.14822246e-03  2.01414045e-05  2.72210235e-04  3.75590073e-01 
 2.50000000e-01  6.21033228e-05  4.48495789e-02 -1.57944924e-15  4.18845089e-14  1.43314466e-03  2.49188121e-05  3.38674125e-04  3.75478345e-01 
 2.60000000e-01  7.83975203e-05  4.55824772e-02 -2.06080743e-15  4.20757909e-14  1.78182697e-03  3.07493383e-05  4.19825912e-04  3.75366618e-01 
 2.70000000e-01  9.86128734e-05  4.64615509e-02 -2.68402153e-15  4.23841101e-14  2.20672059e-03  3.78360507e-05  5.18513479e-04  3.75254891e-01 
 2.80000000e-01  1.23595014e-04  4.75066578e-02 -3.49297560e-15  4.28449472e-14  2.72209131e-03  4.64118893e-05  6.37998963e-04  3.75143164e-01 
 2.90000000e-01  1.54343608e-04  4.87378703e-02 -4.54789360e-15  4.35070362e-14  3.34396076e-03  5.67397276e-05  7.81945423e-04  3.75031437e-01 
 3.00000000e-01  1.92029145e-04  5.01748422e-02 -5.93044178e-15  4.44365272e-14  4.08985659e-03  6.91100678e-05  9.54360199e-04  3.74919710e-01 
 3.10000000e-01  2.38005979e-04  5.18361017e-02 -7.74840183e-15  4.57208329e-14  4.97831426e-03  8.38355918e-05  1.15948228e-03  3.74807982e-01 
 3.20000000e-01  2.93818915e-04  5.37383080e-02 -1.01383315e-14  4.74708845e-14  6.02809194e-03  1.01241976e-04  1.40160520e-03  3.74696255e-01 
 3.30000000e-01  3.61199359e-04  5.58954882e-02 -1.32569952e-14  4.98130444e-14  7.25608829e-03  1.21654454e-04  1.68483093e-03  3.74584528e-01 
 3.40000000e-01  4.42012774e-04  5.83172853e-02 -1.72610038e-14  5.28711111e-14  8.67325178e-03  1.45369906e-04  2.01262513e-03  3.74472802e-01 
 3.50000000e-01  5.38262512e-04  6.10096832e-02 -2.23507828e-14  5.68138718e-14  1.02938916e-02  1.72649287e-04  2.38764789e-03  3.74361075e-01 
 3.60000000e-01  6.52055637e-04  6.39748851e-02 -2.86657858e-14  6.17564263e-14  1.21241587e-02  2.03700865e-04  2.81147563e-03  3.74249348e-01 
 3.70000000e-01  7.85531729e-04  6.72107157e-02 -3.62671753e-14  6.77510126e-14  1.41638907e-02  2.38657967e-04  3.28427655e-03  3.74137621e-01 
 3.80000000e-01  9.40794565e-04  7.07106756e-02 -4.50945675e-14  7.47516699e-14  1.64058201e-02  2.77564817e-04  3.80463073e-03  3.74025894e-01 
 3.90000000e-01  1.11983838e-03  7.44642088e-02 -5.49388963e-14  8.25917420e-14  1.88353224e-02  3.20368260e-04  4.36947053e-03  3.73914167e-01 
 4.00000000e-01  1.32447461e-03  7.84571604e-02 -6.54497163e-14  9.09891790e-14  2.14307773e-02  3.66916636e-04  4.97415755e-03  3.73802441e-01 
 4.10000000e-01  1.55626526e-03  8.26723840e-02 -7.61845841e-14  9.95860416e-14  2.41645269e-02  4.16966101e-04  5.61269229e-03  3.73690714e-01 
 4.20000000e-01  1.81646864e-03  8.70904497e-02 -8.66879518e-14  1.08012247e-13  2.70043291e-02  4.70193635e-04  6.27803338e-03  3.73578987e-01 
 4.30000000e-01  2.10600146e-03  9.16903961e-02 -9.65708574e-14  1.15950368e-13  2.99151346e-02  5.26215113e-04  6.96248839e-03  3.73467260e-01 
 4.40000000e-01  2.42541979e-03  9.64504714e-02 -1.05563490e-13  1.23178753e-13  3.28609838e-02  5.84606269e-04  7.65813074e-03  3.73355534e-01 
 4.50000000e-01  2.77491879e-03  1.01348821e-01 -1.13529069e-13  1.29583364e-13  3.58068200e-02  6.44924239e-04  8.35719833e-03  3.73243807e-01 
 4.60000000e-01  3.15434981e-03  1.06364086e-01 -1.20445904e-13  1.35143714e-13  3.87200533e-02  7.06727632e-04  9.05243723e-03  3.73132081e-01 
 4.70000000e-01  3.56325147e-03  1.11475886e-01 -1.26373572e-13  1.39905721e-13  4.15717629e-02  7.69593585e-04  9.73736644e-03  3.73020354e-01 
 4.80000000e-01  4.00089093e-03  1.16665191e-01 -1.31417816e-13  1.43953335e-13  4.43374888e-02  8.33130879e-04  1.04064531e-02  3.72908628e-01 
 4.90000000e-01  4.46631110e-03  1.21914573e-01 -1.35702468e-13  1.47385735e-13  4.69976181e-02  8.96988844e-04  1.10551996e-02  3.72796901e-01 
 5.00000000e-01  4.95837996e-03  1.27208349e-01 -1.39350771e-13  1.50302079e-13  4.95374161e-02  9.60862262e-04  1.16801539e-02  3.72685175e-01 
 5.10000000e-01  5.47583878e-03  1.32532639e-01 -1.42474983e-13  1.52792957e-13  5.19467741e-02  1.02449284e-03  1.22788586e-02  3.72573449e-01 
 5.20000000e-01  6.01734670e-03  1.37875349e-01 -1.45171914e-13  1.54936668e-13  5.42197587e-02  1.08766797e-03  1.28497571e-02  3.72461722e-01 
 5.30000000e-01  6.58152013e-03  1.43226096e-01 -1.47522134e-13  1.56798491e-13  5.63540411e-02  1.15021761e-03  1.33920736e-02  3.72349996e-01 
 5.40000000e-01  7.16696613e-03  1.48576099e-01 -1.49591139e-13  1.58431574e-13  5.83502760e-02  1.21200994e-03  1.39056830e-02  3.72238270e-01 
 5.50000000e-01  7.77230951e-03  1.53918047e-01 -1.51431364e-13  1.59878519e-13  6.02114823e-02  1.27294641e-03  1.43909799e-02  3.72126543e-01 
 5.60000000e-01  8.39621379e-03  1.59245946e-01 -1.53084393e-13  1.61173151e-13  6.19424651e-02  1.33295674e-03  1.48487568e-02  3.72014817e-01 
 5.70000000e-01  9.03739671e-03  1.64554972e-01 -1.54583037e-13  1.62342183e-13  6.35492996e-02  1.39199402e-03  1.52800953e-02  3.71903091e-01 
 5.80000000e-01  9.69464088e-03  1.69841323e-01 -1.55953145e-13  1.63406679e-13  6.50388914e-02  1.45003027e-03  1.56862727e-02  3.71791365e-01 
 5.90000000e-01  1.03668004e-02  1.75102078e-01 -1.57215104e-13  1.64383263e-13  6.64186135e-02  1.50705251e-03  1.60686851e-02  3.71679639e-01 
 6.00000000e-01  1.10528040e-02  1.80335071e-01 -1.58385049e-13  1.65285097e-13  6.76960170e-02  1.56305937e-03  1.64287854e-02  3.71567913e-01 
