 v-sweep         @M1[id]         @M1[vdsat]      @M1[cgs]        @M1[cgg]        @m1[gm]         @m1[gds]        @m1[gmbs]       @m1[vth]       
 5.00000000e-02  5.96004119e-08  4.45217432e-02 -1.20358785e-16  7.88742702e-14  1.66163168e-06  3.41535012e-07  3.83925681e-07  3.21135952e-01 
 6.00000000e-02  8.22865607e-08  4.45437643e-02 -1.28324665e-16  7.84391006e-14  2.28278017e-06  2.79331280e-07  5.23835251e-07  3.21100288e-01 
 7.00000000e-02  1.11481255e-07  4.45726641e-02 -1.39499697e-16  7.80137542e-14  3.07557427e-06  2.37266049e-07  7.01308374e-07  3.21064624e-01 
 8.00000000e-02  1.49354986e-07  4.46104923e-02 -1.55085546e-16  7.75990133e-14  4.09500025e-06  2.12482170e-07  9.28223836e-07  3.21028960e-01 
 9.00000000e-02  1.98657773e-07  4.46598626e-02 -1.76720806e-16  7.71960246e-14  5.40946510e-06  2.01305992e-07  1.21922840e-06  3.20993296e-01 
 1.00000000e-01  2.62871098e-07  4.47240868e-02 -2.06632683e-16  7.68064220e-14  7.10392317e-06  2.01065663e-07  1.59239392e-06  3.20957632e-01 
 1.10000000e-01  3.46404615e-07  4.48073309e-02 -2.47833062e-16  7.64324871e-14  9.28388373e-06  2.10313700e-07  2.07004932e-06  3.20921969e-01 
 1.20000000e-01  4.54836183e-07  4.49147936e-02 -3.04366750e-16  7.60773527e-14  1.20801790e-05  2.28617266e-07  2.67976242e-06  3.20886305e-01 
 1.30000000e-01  5.95201430e-07  4.50529045e-02 -3.81616897e-16  7.57452546e-14  1.56545872e-05  2.56340202e-07  3.45549436e-06  3.20850641e-01 
 1.40000000e-01  7.76342843e-07  4.52295367e-02 -4.86667616e-16  7.54418310e-14  2.02065136e-05  2.94506461e-07  4.43897135e-06  3.20814977e-01 
 1.50000000e-01  1.00933113e-06  4.54542265e-02 -6.28718070e-16  7.51744674e-14  2.59810091e-05  3.44740314e-07  5.68133400e-06  3.20779314e-01 
 1.60000000e-01  1.30797456e-06  4.57383858e-02 -8.19542123e-16  7.49526800e-14  3.32784708e-05  4.09264208e-07  7.24513727e-06  3.20743650e-01 
 1.70000000e-01  1.68943558e-06  4.60954927e-02 -1.07400703e-15  7.47885519e-14  4.24664140e-05  4.90939300e-07  9.20678287e-06  3.20707987e-01 
 1.80000000e-01  2.17497757e-06  4.65412379e-02 -1.41072534e-15  7.46972810e-14  5.39936843e-05  5.93339446e-07  1.16594597e-05  3.20672323e-01 
 1.90000000e-01  2.79086795e-06  4.70936040e-02 -1.85303381e-15  7.46979985e-14  6.84073306e-05  7.20853143e-07  1.47166371e-05  3.20636660e-01 
 2.00000000e-01  3.56946407e-06  4.77728528e-02 -2.43065923e-15  7.48151534e-14  8.63720124e-05  8.78809177e-07  1.85160806e-05  3.20600996e-01 
 2.10000000e-01  4.55050442e-06  4.86013968e-02 -3.18257325e-15  7.50808750e-14  1.08691198e-04  1.07362072e-06  2.32242355e-05  3.20565333e-01 
 2.20000000e-01  5.78261591e-06  4.96035349e-02 -4.16154641e-15  7.55387371e-14  1.36328497e-04  1.31293951e-06  2.90406321e-05  3.20529670e-01 
 2.30000000e-01  7.32502540e-06  5.08050412e-02 -5.44070145e-15  7.62491792e-14  1.70426310e-04  1.60580679e-06  3.62017344e-05  3.20494006e-01 
 2.40000000e-01  9.24942930e-06  5.22326039e-02 -7.12193741e-15  7.72964920e-14  2.12317729e-04  1.96278175e-06  4.49833999e-05  3.20458343e-01 
 2.50000000e-01  1.16419285e-05  5.39131264e-02 -9.34547102e-15  7.87967629e-14  2.63526565e-04  2.39602237e-06  5.57009093e-05  3.20422680e-01 
 2.60000000e-01  1.46048813e-05  5.58729152e-02 -1.22988644e-14  8.09054475e-14  3.25749915e-04  2.91928936e-06  6.87054356e-05  3.20387017e-01 
 2.70000000e-01  1.82584726e-05  5.81367917e-02 -1.62226565e-14  8.38221971e-14  4.00818207e-04  3.54784376e-06  8.43759364e-05  3.20351354e-01 
 2.80000000e-01  2.27417545e-05  6.07271791e-02 -2.14081046e-14  8.77892171e-14  4.90629462e-04  4.29821364e-06  1.03105828e-04  3.20315691e-01 
 2.90000000e-01  2.82128961e-05  6.36632210e-02 -2.81809501e-14  9.30780899e-14  5.97057739e-04  5.18781712e-06  1.25284454e-04  3.20280027e-01 
 3.00000000e-01  3.48483991e-05  6.69599935e-02 -3.68645920e-14  9.99595123e-14  7.21839973e-04  6.23444603e-06  1.51274240e-04  3.20244364e-01 
 3.10000000e-01  4.28411041e-05  7.06278679e-02 -4.77186400e-14  1.08652488e-13  8.66450114e-04  7.45563592e-06  1.81385325e-04  3.20208701e-01 
 3.20000000e-01  5.23969194e-05  7.46720751e-02 -6.08573035e-14  1.19256512e-13  1.03197344e-03  8.86796869e-06  2.15850320e-04  3.20173039e-01 
 3.30000000e-01  6.37303511e-05  7.90925040e-02 -7.61672221e-14  1.31682872e-13  1.21899627e-03  1.04863705e-05  2.54802209e-04  3.20137376e-01 
 3.40000000e-01  7.70590622e-05  8.38837515e-02 -9.32597131e-14  1.45614062e-13  1.42752591e-03  1.23234745e-05  2.98258376e-04  3.20101713e-01 
 3.50000000e-01  9.25978286e-05  8.90354152e-02 -1.11493079e-13  1.60521114e-13  1.65695268e-03  1.43891125e-05  3.46113051e-04  3.20066050e-01 
 3.60000000e-01  1.10552349e-04  9.45326029e-02 -1.30074944e-13  1.75747568e-13  1.90606001e-03  1.66899864e-05  3.98139352e-04  3.20030387e-01 
 3.70000000e-01  1.31113395e-04  1.00356613e-01 -1.48212814e-13  1.90634107e-13  2.17308225e-03  1.92295421e-05  4.54000717e-04  3.19994724e-01 
 3.80000000e-01  1.54451749e-04  1.06485731e-01 -1.65254270e-13  2.04635377e-13  2.45580265e-03  2.20080463e-05  5.13270244e-04  3.19959062e-01 
 3.90000000e-01  1.80714277e-04  1.12896077e-01 -1.80768320e-13  2.17388484e-13  2.75167954e-03  2.50228398e-05  5.75455466e-04  3.19923399e-01 
 4.00000000e-01  2.10021341e-04  1.19562453e-01 -1.94555294e-13  2.28722273e-13  3.05798566e-03  2.82687228e-05  6.40025620e-04  3.19887736e-01 
 4.10000000e-01  2.42465622e-04  1.26459133e-01 -2.06605010e-13  2.38623409e-13  3.37194603e-03  3.17384224e-05  7.06438524e-04  3.19852074e-01 
 4.20000000e-01  2.78112252e-04  1.33560564e-01 -2.17034014e-13  2.47184715e-13  3.69086188e-03  3.54230903e-05  7.74164676e-04  3.19816411e-01 
 4.30000000e-01  3.17000098e-04  1.40841949e-01 -2.26026011e-13  2.54555809e-13  4.01221207e-03  3.93127867e-05  8.42706910e-04  3.19780749e-01 
 4.40000000e-01  3.59143922e-04  1.48279712e-01 -2.33787074e-13  2.60905823e-13  4.33372738e-03  4.33969193e-05  9.11614790e-04  3.19745086e-01 
 4.50000000e-01  4.04537150e-04  1.55851826e-01 -2.40517432e-13  2.66399788e-13  4.65343709e-03  4.76646169e-05  9.80493653e-04  3.19709424e-01 
 4.60000000e-01  4.53154983e-04  1.63538032e-01 -2.46396726e-13  2.71186185e-13  4.96969004e-03  5.21050289e-05  1.04900877e-03  3.19673761e-01 
 4.70000000e-01  5.04957607e-04  1.71319961e-01 -2.51578390e-13  2.75392109e-13  5.28115446e-03  5.67075518e-05  1.11688547e-03  3.19638099e-01 
 4.80000000e-01  5.59893319e-04  1.79181160e-01 -2.56189393e-13  2.79122913e-13  5.58680155e-03  6.14619887e-05  1.18390617e-03  3.19602437e-01 
 4.90000000e-01  6.17901434e-04  1.87107064e-01 -2.60332688e-13  2.82464147e-13  5.88587795e-03  6.63586517e-05  1.24990532e-03  3.19566774e-01 
 5.00000000e-01  6.78914876e-04  1.95084908e-01 -2.64090706e-13  2.85484393e-13  6.17787170e-03  7.13884191e-05  1.31476315e-03  3.19531112e-01 
 5.10000000e-01  7.42862414e-04  2.03103616e-01 -2.67528983e-13  2.88238231e-13  6.46247553e-03  7.65427561e-05  1.37839894e-03  3.19495450e-01 
 5.20000000e-01  8.09670533e-04  2.11153664e-01 -2.70699480e-13  2.90768976e-13  6.73955026e-03  8.18137123e-05  1.44076419e-03  3.19459788e-01 
 5.30000000e-01  8.79264947e-04  2.19226928e-01 -2.73643413e-13  2.93111010e-13  7.00909042e-03  8.71938996e-05  1.50183639e-03  3.19424125e-01 
 5.40000000e-01  9.51571778e-04  2.27316540e-01 -2.76393584e-13  2.95291711e-13  7.27119332e-03  9.26764613e-05  1.56161328e-03  3.19388463e-01 
 5.50000000e-01  1.02651846e-03  2.35416741e-01 -2.78976237e-13  2.97332991e-13  7.52603206e-03  9.82550341e-05  1.62010788e-03  3.19352801e-01 
 5.60000000e-01  1.10403437e-03  2.43522739e-01 -2.81412516e-13  2.99252510e-13  7.77383286e-03  1.03923708e-04  1.67734430e-03  3.19317139e-01 
 5.70000000e-01  1.18405130e-03  2.51630583e-01 -2.83719608e-13  3.01064622e-13  8.01485642e-03  1.09676985e-04  1.73335433e-03  3.19281477e-01 
 5.80000000e-01  1.26650367e-03  2.59737046e-01 -2.85911610e-13  3.02781103e-13  8.24938305e-03  1.15509744e-04  1.78817464e-03  3.19245815e-01 
 5.90000000e-01  1.35132873e-03  2.67839518e-01 -2.88000212e-13  3.04411712e-13  8.47770112e-03  1.21417198e-04  1.84184464e-03  3.19210153e-01 
 6.00000000e-01  1.43846656e-03  2.75935911e-01 -2.89995203e-13  3.05964623e-13  8.70009834e-03  1.27394868e-04  1.89440482e-03  3.19174491e-01 
