 v-sweep         @M1[id]         @M1[vdsat]      @M1[cgs]        @M1[cgg]        @m1[gm]         @m1[gds]        @m1[gmbs]       @m1[vth]       
 5.00000000e-02  7.27011006e-07  3.94575899e-02 -2.45676202e-17  1.86302044e-14  2.00204673e-05  5.27028966e-06  5.19298077e-06  3.74753135e-01 
 6.00000000e-02  1.01748258e-06  3.94594015e-02 -2.50829933e-17  1.85211626e-14  2.79258101e-05  5.29558301e-06  7.19813189e-06  3.74058385e-01 
 7.00000000e-02  1.40099864e-06  3.94631116e-02 -2.58577650e-17  1.84141880e-14  3.83049758e-05  5.72084033e-06  9.81320351e-06  3.73363636e-01 
 8.00000000e-02  1.91042988e-06  3.94693396e-02 -2.69937264e-17  1.83093063e-14  5.20062635e-05  6.56193591e-06  1.32435111e-05  3.72668886e-01 
 9.00000000e-02  2.58855410e-06  3.94788982e-02 -2.86326197e-17  1.82065750e-14  7.01182339e-05  7.86094607e-06  1.77505130e-05  3.71974137e-01 
 1.00000000e-01  3.49111785e-06  3.94928481e-02 -3.09716522e-17  1.81060957e-14  9.40376793e-05  9.69770093e-06  2.36674802e-05  3.71279388e-01 
 1.10000000e-01  4.69072129e-06  3.95125676e-02 -3.42847849e-17  1.80080298e-14  1.25552907e-04  1.21937409e-05  3.14185470e-05  3.70584639e-01 
 1.20000000e-01  6.28165314e-06  3.95398368e-02 -3.89517707e-17  1.79126207e-14  1.66943084e-04  1.55166263e-05  4.15412693e-05  3.69889890e-01 
 1.30000000e-01  8.38586012e-06  3.95769399e-02 -4.54974091e-17  1.78202238e-14  2.21095251e-04  1.98865607e-05  5.47130457e-05  3.69195141e-01 
 1.40000000e-01  1.11602602e-05  3.96267862e-02 -5.46439485e-17  1.77313461e-14  2.91640557e-04  2.55854869e-05  7.17817497e-05  3.68500392e-01 
 1.50000000e-01  1.48056222e-05  3.96930503e-02 -6.73798511e-17  1.76466994e-14  3.83110922e-04  3.29684790e-05  9.38008595e-05  3.67805643e-01 
 1.60000000e-01  1.95772424e-05  3.97803299e-02 -8.50479717e-17  1.75672676e-14  5.01117040e-04  4.24772700e-05  1.22069324e-04  3.67110895e-01 
 1.70000000e-01  2.57976572e-05  3.98943168e-02 -1.09455283e-16  1.74943914e-14  6.52548546e-04  5.46558230e-05  1.58176411e-04  3.66416146e-01 
 1.80000000e-01  3.38716379e-05  4.00419744e-02 -1.43004456e-16  1.74298698e-14  8.45797264e-04  7.01679104e-05  2.04051819e-04  3.65721398e-01 
 1.90000000e-01  4.43037228e-05  4.02317091e-02 -1.88845522e-16  1.73760781e-14  1.09100459e-03  8.98167007e-05  2.62021383e-04  3.65026649e-01 
 2.00000000e-01  5.77185532e-05  4.04735205e-02 -2.51046156e-16  1.73361009e-14  1.40033347e-03  1.14566316e-04  3.34868537e-04  3.64331901e-01 
 2.10000000e-01  7.48842693e-05  4.07791091e-02 -3.34787740e-16  1.73138859e-14  1.78826278e-03  1.45565124e-04  4.25901045e-04  3.63637153e-01 
 2.20000000e-01  9.67391664e-05  4.11619175e-02 -4.46620039e-16  1.73144438e-14  2.27189490e-03  1.84170027e-04  5.39020835e-04  3.62942404e-01 
 2.30000000e-01  1.24421647e-04  4.16370781e-02 -5.94855673e-16  1.73441562e-14  2.87125358e-03  2.31969985e-04  6.78791550e-04  3.62247656e-01 
 2.40000000e-01  1.59303143e-04  4.22212434e-02 -7.90246954e-16  1.74113002e-14  3.60952622e-03  2.90805396e-04  8.50493143e-04  3.61552908e-01 
 2.50000000e-01  2.03023023e-04  4.29322777e-02 -1.04712817e-15  1.75269324e-14  4.51317287e-03  3.62777585e-04  1.06014563e-03  3.60858161e-01 
 2.60000000e-01  2.57523472e-04  4.37888008e-02 -1.38518051e-15  1.77062524e-14  5.61178774e-03  4.50240062e-04  1.31447589e-03  3.60163413e-01 
 2.70000000e-01  3.25080936e-04  4.48095865e-02 -1.83185909e-15  1.79704821e-14  6.93756780e-03  5.55760835e-04  1.62079468e-03  3.59468665e-01 
 2.80000000e-01  4.08329057e-04  4.60128393e-02 -2.42531901e-15  1.83491403e-14  8.52423293e-03  6.82044315e-04  1.98674885e-03  3.58773917e-01 
 2.90000000e-01  5.10266501e-04  4.74153871e-02 -3.21739128e-15  1.88823699e-14  1.04052722e-02  8.31803335e-04  2.41992134e-03  3.58079170e-01 
 3.00000000e-01  6.34242101e-04  4.90318504e-02 -4.27576173e-15  1.96226719e-14  1.26114744e-02  1.00757776e-03  2.92727046e-03  3.57384422e-01 
 3.10000000e-01  7.83910012e-04  5.08738558e-02 -5.68397996e-15  2.06349823e-14  1.51678413e-02  1.21150613e-03  3.51443204e-03  3.56689675e-01 
 3.20000000e-01  9.63149532e-04  5.29493697e-02 -7.53737004e-15  2.19935958e-14  1.80901571e-02  1.44506955e-03  4.18494758e-03  3.55994928e-01 
 3.30000000e-01  1.17594519e-03  5.52621874e-02 -9.92936535e-15  2.37709447e-14  2.13787015e-02  1.70883596e-03  4.93950967e-03  3.55300180e-01 
 3.40000000e-01  1.42612912e-03  5.78106255e-02 -1.29268683e-14  2.60174687e-14  2.50082519e-02  2.00212839e-03  5.77502476e-03  3.54605433e-01 
 3.50000000e-01  1.71731507e-03  6.05888929e-02 -1.65768020e-14  2.87735166e-14  2.89580932e-02  2.32305731e-03  6.68473982e-03  3.53910686e-01 
 3.60000000e-01  2.05275016e-03  6.35876117e-02 -2.08460333e-14  3.20149018e-14  3.31820817e-02  2.66854851e-03  7.65839063e-03  3.53215939e-01 
 3.70000000e-01  2.43511036e-03  6.67939019e-02 -2.56168503e-14  3.56518413e-14  3.76199083e-02  3.03442016e-03  8.68252392e-03  3.52521192e-01 
 3.80000000e-01  2.86636583e-03  7.01920741e-02 -3.06930366e-14  3.95333231e-14  4.22007060e-02  3.41562685e-03  9.74130955e-03  3.51826445e-01 
 3.90000000e-01  3.34769109e-03  7.37644137e-02 -3.58322882e-14  4.34719401e-14  4.68477295e-02  3.80658764e-03  1.08175906e-02  3.51131699e-01 
 4.00000000e-01  3.87942807e-03  7.74919829e-02 -4.07949234e-14  4.72815358e-14  5.14834553e-02  4.20155235e-03  1.18940243e-02  3.50436952e-01 
 4.10000000e-01  4.46110321e-03  8.13553782e-02 -4.53890040e-14  5.08123009e-14  5.60344259e-02  4.59495759e-03  1.29541615e-02  3.49742206e-01 
 4.20000000e-01  5.09149249e-03  8.53353957e-02 -4.94952171e-14  5.39703412e-14  6.04352738e-02  4.98173073e-03  1.39833407e-02  3.49047459e-01 
 4.30000000e-01  5.76872380e-03  8.94135743e-02 -5.30676420e-14  5.67185806e-14  6.46315676e-02  5.35751420e-03  1.49693166e-02  3.48352713e-01 
 4.40000000e-01  6.49040292e-03  9.35726061e-02 -5.61178924e-14  5.90646983e-14  6.85813553e-02  5.71879873e-03  1.59025988e-02  3.47657966e-01 
 4.50000000e-01  7.25374969e-03  9.77966166e-02 -5.86935592e-14  6.10445345e-14  7.22554871e-02  6.06296915e-03  1.67765192e-02  3.46963220e-01 
 4.60000000e-01  8.05573225e-03  1.02071327e-01 -6.08589451e-14  6.27071765e-14  7.56369402e-02  6.38827693e-03  1.75870804e-02  3.46268474e-01 
 4.70000000e-01  8.89319009e-03  1.06384121e-01 -6.26814560e-14  6.41043734e-14  7.87194402e-02  6.69375902e-03  1.83326499e-02  3.45573728e-01 
 4.80000000e-01  9.76294022e-03  1.10724028e-01 -6.42236949e-14  6.52843503e-14  8.15056759e-02  6.97912391e-03  1.90135671e-02  3.44878982e-01 
 4.90000000e-01  1.06618632e-02  1.15081657e-01 -6.55398585e-14  6.62889563e-14  8.40053675e-02  7.24462304e-03  1.96317196e-02  3.44184236e-01 
 5.00000000e-01  1.15869688e-02  1.19449087e-01 -6.66748409e-14  6.71529220e-14  8.62333851e-02  7.49092226e-03  2.01901321e-02  3.43489490e-01 
 5.10000000e-01  1.25354422e-02  1.23819738e-01 -6.76647870e-14  6.79042526e-14  8.82080497e-02  7.71898302e-03  2.06925965e-02  3.42794745e-01 
 5.20000000e-01  1.35046735e-02  1.28188224e-01 -6.85382749e-14  6.85651193e-14  8.99496871e-02  7.92995917e-03  2.11433576e-02  3.42099999e-01 
 5.30000000e-01  1.44922735e-02  1.32550215e-01 -6.93176530e-14  6.91528799e-14  9.14794623e-02  8.12511182e-03  2.15468607e-02  3.41405253e-01 
 5.40000000e-01  1.54960777e-02  1.36902289e-01 -7.00202994e-14  6.96810445e-14  9.28184851e-02  8.30574236e-03  2.19075580e-02  3.40710508e-01 
 5.50000000e-01  1.65141425e-02  1.41241812e-01 -7.06597046e-14  7.01601096e-14  9.39871617e-02  8.47314217e-03  2.22297683e-02  3.40015762e-01 
 5.60000000e-01  1.75447360e-02  1.45566805e-01 -7.12463580e-14  7.05982420e-14  9.50047542e-02  8.62855682e-03  2.25175814e-02  3.39321017e-01 
 5.70000000e-01  1.85863237e-02  1.49875846e-01 -7.17884496e-14  7.10018214e-14  9.58891094e-02  8.77316226e-03  2.27747992e-02  3.38626272e-01 
 5.80000000e-01  1.96375535e-02  1.54167970e-01 -7.22924150e-14  7.13758627e-14  9.66565177e-02  8.90805043e-03  2.30049047e-02  3.37931527e-01 
 5.90000000e-01  2.06972386e-02  1.58442588e-01 -7.27633533e-14  7.17243397e-14  9.73216707e-02  9.03422215e-03  2.32110513e-02  3.37236782e-01 
 6.00000000e-01  2.17643408e-02  1.62699413e-01 -7.32053439e-14  7.20504320e-14  9.78976873e-02  9.15258527e-03  2.33960675e-02  3.36542037e-01 
