 v-sweep         @M1[id]         @M1[vdsat]      @M1[cgs]        @M1[cgg]        @m1[gm]         @m1[gds]        @m1[gmbs]       @m1[vth]       
 5.00000000e-02  7.19757475e-09  3.94526433e-02 -2.43243764e-19  1.84457469e-16  1.98207290e-07  5.21766264e-08  5.14116059e-08  3.74753135e-01 
 6.00000000e-02  1.00733134e-08  3.94544476e-02 -2.48346468e-19  1.83377847e-16  2.76472167e-07  5.24283713e-08  7.12630692e-08  3.74058385e-01 
 7.00000000e-02  1.38702309e-08  3.94581496e-02 -2.56017475e-19  1.82318693e-16  3.79228987e-07  5.66397606e-08  9.71530127e-08  3.73363636e-01 
 8.00000000e-02  1.89137599e-08  3.94643686e-02 -2.67264618e-19  1.81280261e-16  5.14876283e-07  6.49679339e-08  1.31114146e-07  3.72668886e-01 
 9.00000000e-02  2.56274179e-08  3.94739168e-02 -2.83491285e-19  1.80263119e-16  6.94191332e-07  7.78295435e-08  1.75735027e-07  3.71974137e-01 
 1.00000000e-01  3.45631207e-08  3.94878547e-02 -3.06650023e-19  1.79268275e-16  9.31003152e-07  9.60150369e-08  2.34315223e-07  3.71279388e-01 
 1.10000000e-01  4.64396459e-08  3.95075599e-02 -3.39453318e-19  1.78297325e-16  1.24301713e-06  1.20727811e-07  3.11053932e-07  3.70584639e-01 
 1.20000000e-01  6.21905034e-08  3.95348119e-02 -3.85661101e-19  1.77352681e-16  1.65279871e-06  1.53626894e-07  4.11273353e-07  3.69889890e-01 
 1.30000000e-01  8.30230399e-08  3.95718940e-02 -4.50469405e-19  1.76437859e-16  2.18893211e-06  1.96892538e-07  5.41680327e-07  3.69195141e-01 
 1.40000000e-01  1.10490852e-07  3.96217142e-02 -5.41029206e-19  1.75557882e-16  2.88736954e-06  2.53316307e-07  7.10669699e-07  3.68500392e-01 
 1.50000000e-01  1.46581710e-07  3.96879457e-02 -6.67127261e-19  1.74719796e-16  3.79298277e-06  3.26413917e-07  9.28672260e-07  3.67805643e-01 
 1.60000000e-01  1.93823286e-07  3.97751844e-02 -8.42059162e-19  1.73933343e-16  4.96132652e-06  4.20559241e-07  1.20854969e-06  3.67110895e-01 
 1.70000000e-01  2.55409046e-07  3.98891197e-02 -1.08371573e-18  1.73211796e-16  6.46062172e-06  5.41138588e-07  1.56603890e-06  3.66416146e-01 
 1.80000000e-01  3.35346765e-07  4.00367118e-02 -1.41588580e-18  1.72572968e-16  8.37396814e-06  6.94724924e-07  2.02024878e-06  3.65721398e-01 
 1.90000000e-01  4.38632190e-07  4.02263636e-02 -1.86975780e-18  1.72040377e-16  1.08017972e-05  8.89272066e-07  2.59421248e-06  3.65026649e-01 
 2.00000000e-01  5.71450509e-07  4.04680700e-02 -2.48560575e-18  1.71644563e-16  1.38645699e-05  1.13432850e-06  3.31549719e-06  3.64331901e-01 
 2.10000000e-01  7.41408184e-07  4.07735259e-02 -3.31473047e-18  1.71424613e-16  1.77056987e-05  1.44126856e-06  4.21686646e-06  3.63637153e-01 
 2.20000000e-01  9.57797156e-07  4.11561668e-02 -4.42198115e-18  1.71430137e-16  2.24946029e-05  1.82353365e-06  5.33697404e-06  3.62942404e-01 
 2.30000000e-01  1.23189182e-06  4.16311167e-02 -5.88966099e-18  1.71724319e-16  2.84296717e-05  2.29686625e-06  6.72103584e-06  3.62247656e-01 
 2.40000000e-01  1.57727554e-06  4.22150179e-02 -7.82422857e-18  1.72389112e-16  3.57406806e-05  2.87950311e-06  8.42137457e-06  3.61552908e-01 
 2.50000000e-01  2.01018708e-06  4.29257222e-02 -1.03676076e-17  1.73533985e-16  4.46898926e-05  3.59227093e-06  1.04976600e-05  3.60858161e-01 
 2.60000000e-01  2.54986704e-06  4.37818345e-02 -1.37146614e-17  1.75309431e-16  5.55707135e-05  4.45850182e-06  1.30165865e-05  3.60163413e-01 
 2.70000000e-01  3.21887046e-06  4.48021107e-02 -1.81372231e-17  1.77925568e-16  6.87024580e-05  5.50366237e-06  1.60506613e-05  3.59468665e-01 
 2.80000000e-01  4.04329558e-06  4.60047341e-02 -2.40130661e-17  1.81674661e-16  8.44196862e-05  6.75458264e-06  1.96757584e-05  3.58773917e-01 
 2.90000000e-01  5.05286330e-06  4.74065078e-02 -3.18553691e-17  1.86954165e-16  1.03054860e-04  8.23819079e-06  2.39671622e-05  3.58079170e-01 
 3.00000000e-01  6.28077213e-06  4.90220233e-02 -4.23342895e-17  1.94283891e-16  1.24913903e-04  9.97971787e-06  2.89940181e-05  3.57384422e-01 
 3.10000000e-01  7.76325624e-06  5.08628740e-02 -5.62770517e-17  2.04306771e-16  1.50245619e-04  1.20004361e-05  3.48124201e-05  3.56689675e-01 
 3.20000000e-01  9.53879336e-06  5.29369889e-02 -7.46274592e-17  2.17758398e-16  1.79207687e-04  1.43151201e-05  4.14577579e-05  3.55994928e-01 
 3.30000000e-01  1.16469186e-05  5.52481225e-02 -9.83105956e-17  2.35355923e-16  2.11804313e-04  1.69295089e-05  4.89372284e-05  3.55300180e-01 
 3.40000000e-01  1.41256728e-05  5.77945484e-02 -1.27988862e-16  2.57598751e-16  2.47787048e-04  1.98370119e-05  5.72205246e-05  3.54605433e-01 
 3.50000000e-01  1.70109486e-05  6.05704309e-02 -1.64126844e-16  2.84886373e-16  2.86951995e-04  2.30190194e-05  6.62410630e-05  3.53910686e-01 
 3.60000000e-01  2.03350192e-05  6.35663473e-02 -2.06396490e-16  3.16979318e-16  3.28843097e-04  2.64451691e-05  7.58974198e-05  3.53215939e-01 
 3.70000000e-01  2.41245098e-05  6.67693746e-02 -2.53632333e-16  3.52988643e-16  3.72863575e-04  3.00740982e-05  8.60564916e-05  3.52521192e-01 
 3.80000000e-01  2.83990582e-05  7.01637844e-02 -3.03891634e-16  3.91419180e-16  4.18311570e-04  3.38558535e-05  9.65615177e-05  3.51826445e-01 
 3.90000000e-01  3.31704192e-05  7.37318285e-02 -3.54775340e-16  4.30415409e-16  4.64426446e-04  3.77351360e-05  1.07242470e-04  3.51131699e-01 
 4.00000000e-01  3.84420934e-05  7.74545425e-02 -4.03910363e-16  4.68134194e-16  5.10439333e-04  4.16549299e-05  1.17927359e-04  3.50436952e-01 
 4.10000000e-01  4.42094903e-05  8.13125046e-02 -4.49396322e-16  5.03092274e-16  5.55621183e-04  4.55600339e-05  1.28452940e-04  3.49742206e-01 
 4.20000000e-01  5.04605694e-05  8.52865011e-02 -4.90051903e-16  5.34360005e-16  5.99322749e-04  4.94000798e-05  1.38673600e-04  3.49047459e-01 
 4.30000000e-01  5.71768500e-05  8.93580699e-02 -5.25422445e-16  5.61570294e-16  6.41002920e-04  5.31317648e-05  1.48467610e-04  3.48352713e-01 
 4.40000000e-01  6.43346589e-05  9.35099099e-02 -5.55622939e-16  5.84799178e-16  6.80244151e-04  5.67201813e-05  1.57740515e-04  3.47657966e-01 
 4.50000000e-01  7.19064787e-05  9.77261607e-02 -5.81124582e-16  6.04401511e-16  7.16755783e-04  6.01392807e-05  1.66425828e-04  3.46963220e-01 
 4.60000000e-01  7.98622789e-05  1.01992564e-01 -6.02564038e-16  6.20863305e-16  7.50367462e-04  6.33716085e-05  1.74483555e-04  3.46268474e-01 
 4.70000000e-01  8.81707376e-05  1.06296527e-01 -6.20608691e-16  6.34696931e-16  7.81015542e-04  6.64075063e-05  1.81897176e-04  3.45573728e-01 
 4.80000000e-01  9.68002953e-05  1.10627109e-01 -6.35878375e-16  6.46379864e-16  8.08725437e-04  6.92439858e-05  1.88669764e-04  3.44878982e-01 
 4.90000000e-01  1.05720010e-04  1.14974948e-01 -6.48909693e-16  6.56326453e-16  8.33592495e-04  7.18834568e-05  1.94819790e-04  3.44184236e-01 
 5.00000000e-01  1.14900212e-04  1.19332156e-01 -6.60147137e-16  6.64880565e-16  8.55763345e-04  7.43324532e-05  2.00377046e-04  3.43489490e-01 
 5.10000000e-01  1.24312961e-04  1.23692182e-01 -6.69948581e-16  6.72319480e-16  8.75419035e-04  7.66004542e-05  2.05378976e-04  3.42794745e-01 
 5.20000000e-01  1.33932347e-04  1.28049673e-01 -6.78596975e-16  6.78862713e-16  8.92760684e-04  7.86988607e-05  2.09867560e-04  3.42099999e-01 
 5.30000000e-01  1.43734639e-04  1.32400328e-01 -6.86313591e-16  6.84682125e-16  9.07997885e-04  8.06401489e-05  2.13886797e-04  3.41405253e-01 
 5.40000000e-01  1.53698336e-04  1.36740755e-01 -6.93270488e-16  6.89911478e-16  9.21339820e-04  8.24372045e-05  2.17480788e-04  3.40710508e-01 
 5.50000000e-01  1.63804126e-04  1.41068345e-01 -6.99601236e-16  6.94654699e-16  9.32988795e-04  8.41028221e-05  2.20692335e-04  3.40015762e-01 
 5.60000000e-01  1.74034793e-04  1.45381144e-01 -7.05409691e-16  6.98992647e-16  9.43135856e-04  8.56493488e-05  2.23561989e-04  3.39321017e-01 
 5.70000000e-01  1.84375085e-04  1.49677754e-01 -7.10776940e-16  7.02988486e-16  9.51958070e-04  8.70884464e-05  2.26127459e-04  3.38626272e-01 
 5.80000000e-01  1.94811553e-04  1.53957231e-01 -7.15766703e-16  7.06691869e-16  9.59617117e-04  8.84309474e-05  2.28423304e-04  3.37931527e-01 
 5.90000000e-01  2.05332395e-04  1.58219004e-01 -7.20429466e-16  7.10142142e-16  9.66258849e-04  8.96867833e-05  2.30480821e-04  3.37236782e-01 
 6.00000000e-01  2.15927279e-04  1.62462804e-01 -7.24805619e-16  7.13370784e-16  9.72013540e-04  9.08649658e-05  2.32328091e-04  3.36542037e-01 
 6.10000000e-01  2.26587189e-04  1.66688603e-01 -7.28927829e-16  7.16403251e-16  9.76996599e-04  9.19736045e-05  2.33990117e-04  3.35847292e-01 
 6.20000000e-01  2.37304270e-04  1.70896562e-01 -7.32822825e-16  7.19260365e-16  9.81309579e-04  9.30199494e-05  2.35489028e-04  3.35152547e-01 
 6.30000000e-01  2.48071685e-04  1.75086990e-01 -7.36512748e-16  7.21959368e-16  9.85041337e-04  9.40104489e-05  2.36844311e-04  3.34457802e-01 
 6.40000000e-01  2.58883487e-04  1.79260304e-01 -7.40016162e-16  7.24514707e-16  9.88269261e-04  9.49508156e-05  2.38073067e-04  3.33763057e-01 
 6.50000000e-01  2.69734508e-04  1.83417005e-01 -7.43348816e-16  7.26938633e-16  9.91060495e-04  9.58460951e-05  2.39190251e-04  3.33068313e-01 
 6.60000000e-01  2.80620249e-04  1.87557650e-01 -7.46524234e-16  7.29241656e-16  9.93473115e-04  9.67007345e-05  2.40208921e-04  3.32373568e-01 
 6.70000000e-01  2.91536794e-04  1.91682834e-01 -7.49554145e-16  7.31432890e-16  9.95557224e-04  9.75186478e-05  2.41140455e-04  3.31678824e-01 
 6.80000000e-01  3.02480731e-04  1.95793175e-01 -7.52448832e-16  7.33520316e-16  9.97355967e-04  9.83032780e-05  2.41994765e-04  3.30984080e-01 
 6.90000000e-01  3.13449077e-04  1.99889298e-01 -7.55217384e-16  7.35510986e-16  9.98906444e-04  9.90576529e-05  2.42780476e-04  3.30289335e-01 
 7.00000000e-01  3.24439225e-04  2.03971833e-01 -7.57867908e-16  7.37411184e-16  1.00024052e-03  9.97844365e-05  2.43505099e-04  3.29594591e-01 
 7.10000000e-01  3.35448888e-04  2.08041399e-01 -7.60407680e-16  7.39226547e-16  1.00138556e-03  1.00485975e-04  2.44175174e-04  3.28899847e-01 
 7.20000000e-01  3.46476052e-04  2.12098603e-01 -7.62843276e-16  7.40962168e-16  1.00236503e-03  1.01164338e-04  2.44796404e-04  3.28205103e-01 
 7.30000000e-01  3.57518944e-04  2.16144035e-01 -7.65180668e-16  7.42622670e-16  1.00319911e-03  1.01821352e-04  2.45373769e-04  3.27510359e-01 
 7.40000000e-01  3.68575994e-04  2.20178264e-01 -7.67425313e-16  7.44212273e-16  1.00390510e-03  1.02458636e-04  2.45911621e-04  3.26815615e-01 
 7.50000000e-01  3.79645805e-04  2.24201838e-01 -7.69582210e-16  7.45734843e-16  1.00449789e-03  1.03077626e-04  2.46413772e-04  3.26120871e-01 
 7.60000000e-01  3.90727137e-04  2.28215280e-01 -7.71655962e-16  7.47193938e-16  1.00499030e-03  1.03679598e-04  2.46883570e-04  3.25426128e-01 
 7.70000000e-01  4.01818876e-04  2.32219090e-01 -7.73650818e-16  7.48592840e-16  1.00539336e-03  1.04265695e-04  2.47323959e-04  3.24731384e-01 
 7.80000000e-01  4.12920026e-04  2.36213743e-01 -7.75570712e-16  7.49934589e-16  1.00571661e-03  1.04836934e-04  2.47737537e-04  3.24036640e-01 
 7.90000000e-01  4.24029686e-04  2.40199688e-01 -7.77419298e-16  7.51222003e-16  1.00596832e-03  1.05394234e-04  2.48126602e-04  3.23341897e-01 
 8.00000000e-01  4.35147041e-04  2.44177353e-01 -7.79199974e-16  7.52457707e-16  1.00615564e-03  1.05938419e-04  2.48493192e-04  3.22647154e-01 
 8.10000000e-01  4.46271354e-04  2.48147141e-01 -7.80915910e-16  7.53644145e-16  1.00628480e-03  1.06470237e-04  2.48839119e-04  3.21952410e-01 
 8.20000000e-01  4.57401950e-04  2.52109434e-01 -7.82570065e-16  7.54783600e-16  1.00636124e-03  1.06990363e-04  2.49166002e-04  3.21257667e-01 
 8.30000000e-01  4.68538211e-04  2.56064589e-01 -7.84165211e-16  7.55878209e-16  1.00638972e-03  1.07499414e-04  2.49475289e-04  3.20562924e-01 
 8.40000000e-01  4.79679573e-04  2.60012947e-01 -7.85703943e-16  7.56929972e-16  1.00637442e-03  1.07997953e-04  2.49768279e-04  3.19868181e-01 
 8.50000000e-01  4.90825513e-04  2.63954826e-01 -7.87188701e-16  7.57940769e-16  1.00631902e-03  1.08486496e-04  2.50046144e-04  3.19173438e-01 
 8.60000000e-01  5.01975550e-04  2.67890528e-01 -7.88621775e-16  7.58912364e-16  1.00622680e-03  1.08965516e-04  2.50309939e-04  3.18478695e-01 
 8.70000000e-01  5.13129237e-04  2.71820336e-01 -7.90005321e-16  7.59846418e-16  1.00610063e-03  1.09435450e-04  2.50560624e-04  3.17783952e-01 
 8.80000000e-01  5.24286159e-04  2.75744515e-01 -7.91341372e-16  7.60744495e-16  1.00594312e-03  1.09896703e-04  2.50799069e-04  3.17089209e-01 
 8.90000000e-01  5.35445929e-04  2.79663318e-01 -7.92631845e-16  7.61608071e-16  1.00575658e-03  1.10349648e-04  2.51026067e-04  3.16394467e-01 
 9.00000000e-01  5.46608187e-04  2.83576981e-01 -7.93878552e-16  7.62438538e-16  1.00554307e-03  1.10794635e-04  2.51242343e-04  3.15699724e-01 
 9.10000000e-01  5.57772594e-04  2.87485727e-01 -7.95083203e-16  7.63237214e-16  1.00530449e-03  1.11231986e-04  2.51448559e-04  3.15004982e-01 
 9.20000000e-01  5.68938833e-04  2.91389766e-01 -7.96247419e-16  7.64005345e-16  1.00504254e-03  1.11662007e-04  2.51645326e-04  3.14310239e-01 
 9.30000000e-01  5.80106607e-04  2.95289295e-01 -7.97372735e-16  7.64744109e-16  1.00475875e-03  1.12084979e-04  2.51833204e-04  3.13615497e-01 
 9.40000000e-01  5.91275636e-04  2.99184501e-01 -7.98460605e-16  7.65454625e-16  1.00445456e-03  1.12501170e-04  2.52012711e-04  3.12920755e-01 
 9.50000000e-01  6.02445655e-04  3.03075561e-01 -7.99512412e-16  7.66137955e-16  1.00413123e-03  1.12910829e-04  2.52184325e-04  3.12226012e-01 
 9.60000000e-01  6.13616415e-04  3.06962639e-01 -8.00529466e-16  7.66795105e-16  1.00378998e-03  1.13314191e-04  2.52348489e-04  3.11531270e-01 
 9.70000000e-01  6.24787680e-04  3.10845894e-01 -8.01513015e-16  7.67427032e-16  1.00343189e-03  1.13711477e-04  2.52505614e-04  3.10836528e-01 
 9.80000000e-01  6.35959227e-04  3.14725474e-01 -8.02464243e-16  7.68034647e-16  1.00305797e-03  1.14102898e-04  2.52656082e-04  3.10141786e-01 
 9.90000000e-01  6.47130846e-04  3.18601519e-01 -8.03384281e-16  7.68618815e-16  1.00266916e-03  1.14488651e-04  2.52800250e-04  3.09447044e-01 
 1.00000000e+00  6.58302336e-04  3.22474161e-01 -8.04274204e-16  7.69180363e-16  1.00226634e-03  1.14868923e-04  2.52938448e-04  3.08752303e-01 
 1.01000000e+00  6.69473507e-04  3.26343526e-01 -8.05135038e-16  7.69720076e-16  1.00185031e-03  1.15243891e-04  2.53070986e-04  3.08057561e-01 
 1.02000000e+00  6.80644178e-04  3.30209733e-01 -8.05967761e-16  7.70238705e-16  1.00142183e-03  1.15613723e-04  2.53198155e-04  3.07362819e-01 
 1.03000000e+00  6.91814178e-04  3.34072895e-01 -8.06773307e-16  7.70736965e-16  1.00098160e-03  1.15978579e-04  2.53320225e-04  3.06668078e-01 
 1.04000000e+00  7.02983345e-04  3.37933119e-01 -8.07552568e-16  7.71215541e-16  1.00053030e-03  1.16338611e-04  2.53437450e-04  3.05973336e-01 
 1.05000000e+00  7.14151522e-04  3.41790506e-01 -8.08306398e-16  7.71675084e-16  1.00006853e-03  1.16693962e-04  2.53550069e-04  3.05278595e-01 
 1.06000000e+00  7.25318562e-04  3.45645154e-01 -8.09035613e-16  7.72116220e-16  9.99596889e-04  1.17044769e-04  2.53658305e-04  3.04583853e-01 
 1.07000000e+00  7.36484325e-04  3.49497152e-01 -8.09740993e-16  7.72539547e-16  9.99115911e-04  1.17391164e-04  2.53762369e-04  3.03889112e-01 
 1.08000000e+00  7.47648675e-04  3.53346590e-01 -8.10423285e-16  7.72945636e-16  9.98626114e-04  1.17733271e-04  2.53862458e-04  3.03194371e-01 
 1.09000000e+00  7.58811486e-04  3.57193550e-01 -8.11083208e-16  7.73335036e-16  9.98127982e-04  1.18071209e-04  2.53958760e-04  3.02499630e-01 
 1.10000000e+00  7.69972634e-04  3.61038110e-01 -8.11721446e-16  7.73708272e-16  9.97621973e-04  1.18405090e-04  2.54051449e-04  3.01804889e-01 
 1.11000000e+00  7.81132004e-04  3.64880347e-01 -8.12338659e-16  7.74065847e-16  9.97108515e-04  1.18735024e-04  2.54140692e-04  3.01110148e-01 
 1.12000000e+00  7.92289483e-04  3.68720331e-01 -8.12935478e-16  7.74408244e-16  9.96588015e-04  1.19061113e-04  2.54226644e-04  3.00415407e-01 
 1.13000000e+00  8.03444965e-04  3.72558132e-01 -8.13512512e-16  7.74735927e-16  9.96060856e-04  1.19383456e-04  2.54309454e-04  2.99720666e-01 
 1.14000000e+00  8.14598350e-04  3.76393816e-01 -8.14070342e-16  7.75049341e-16  9.95527401e-04  1.19702149e-04  2.54389260e-04  2.99025925e-01 
 1.15000000e+00  8.25749538e-04  3.80227443e-01 -8.14609529e-16  7.75348914e-16  9.94987991e-04  1.20017281e-04  2.54466194e-04  2.98331185e-01 
 1.16000000e+00  8.36898438e-04  3.84059075e-01 -8.15130611e-16  7.75635058e-16  9.94442950e-04  1.20328941e-04  2.54540382e-04  2.97636444e-01 
 1.17000000e+00  8.48044960e-04  3.87888769e-01 -8.15634107e-16  7.75908166e-16  9.93892585e-04  1.20637210e-04  2.54611941e-04  2.96941704e-01 
 1.18000000e+00  8.59189019e-04  3.91716578e-01 -8.16120516e-16  7.76168621e-16  9.93337185e-04  1.20942170e-04  2.54680983e-04  2.96246963e-01 
 1.19000000e+00  8.70330533e-04  3.95542557e-01 -8.16590316e-16  7.76416787e-16  9.92777023e-04  1.21243897e-04  2.54747614e-04  2.95552223e-01 
 1.20000000e+00  8.81469425e-04  3.99366753e-01 -8.17043972e-16  7.76653018e-16  9.92212360e-04  1.21542466e-04  2.54811934e-04  2.94857483e-01 
 1.21000000e+00  8.92605618e-04  4.03189217e-01 -8.17481927e-16  7.76877652e-16  9.91643442e-04  1.21837946e-04  2.54874038e-04  2.94162742e-01 
 1.22000000e+00  9.03739041e-04  4.07009993e-01 -8.17904612e-16  7.77091018e-16  9.91070500e-04  1.22130408e-04  2.54934017e-04  2.93468002e-01 
 1.23000000e+00  9.14869625e-04  4.10829126e-01 -8.18312440e-16  7.77293429e-16  9.90493755e-04  1.22419916e-04  2.54991957e-04  2.92773262e-01 
 1.24000000e+00  9.25997304e-04  4.14646659e-01 -8.18705811e-16  7.77485192e-16  9.89913417e-04  1.22706536e-04  2.55047938e-04  2.92078522e-01 
 1.25000000e+00  9.37122015e-04  4.18462632e-01 -8.19085110e-16  7.77666598e-16  9.89329684e-04  1.22990328e-04  2.55102039e-04  2.91383783e-01 
 1.26000000e+00  9.48243696e-04  4.22277085e-01 -8.19450710e-16  7.77837932e-16  9.88742742e-04  1.23271353e-04  2.55154333e-04  2.90689043e-01 
 1.27000000e+00  9.59362289e-04  4.26090055e-01 -8.19802970e-16  7.77999466e-16  9.88152770e-04  1.23549668e-04  2.55204890e-04  2.89994303e-01 
 1.28000000e+00  9.70477737e-04  4.29901579e-01 -8.20142236e-16  7.78151464e-16  9.87559937e-04  1.23825329e-04  2.55253775e-04  2.89299563e-01 
 1.29000000e+00  9.81589987e-04  4.33711690e-01 -8.20468845e-16  7.78294183e-16  9.86964403e-04  1.24098391e-04  2.55301054e-04  2.88604824e-01 
 1.30000000e+00  9.92698986e-04  4.37520424e-01 -8.20783120e-16  7.78427867e-16  9.86366318e-04  1.24368907e-04  2.55346785e-04  2.87910084e-01 
