 v-sweep         @M1[id]         @M1[vdsat]      @M1[cgs]        @M1[cgg]        @m1[gm]         @m1[gds]        @m1[gmbs]       @m1[vth]       
 5.00000000e-02  4.05832217e-08  4.41437025e-02 -1.74599860e-16  1.14889433e-13  1.13145966e-06  2.25995481e-07  2.61297820e-07  3.21146574e-01 
 6.00000000e-02  5.59471292e-08  4.41655385e-02 -1.85898874e-16  1.14255325e-13  1.55212362e-06  1.82141003e-07  3.55985373e-07  3.21132676e-01 
 7.00000000e-02  7.56990250e-08  4.41941756e-02 -2.01743771e-16  1.13635431e-13  2.08850536e-06  1.51857134e-07  4.75980305e-07  3.21118779e-01 
 8.00000000e-02  1.01300348e-07  4.42316354e-02 -2.23832907e-16  1.13030849e-13  2.77763599e-06  1.32903978e-07  6.29277281e-07  3.21104882e-01 
 9.00000000e-02  1.34599726e-07  4.42804948e-02 -2.54480202e-16  1.12443193e-13  3.66550844e-06  1.22572904e-07  8.25716700e-07  3.21090984e-01 
 1.00000000e-01  1.77935094e-07  4.43440175e-02 -2.96828402e-16  1.11874765e-13  4.80918481e-06  1.18857287e-07  1.07742790e-06  3.21077087e-01 
 1.10000000e-01  2.34265431e-07  4.44263074e-02 -3.55124471e-16  1.11328781e-13  6.27948481e-06  1.20560260e-07  1.39938701e-06  3.21063190e-01 
 1.20000000e-01  3.07331180e-07  4.45324837e-02 -4.35067959e-16  1.10809655e-13  8.16417721e-06  1.27128519e-07  1.81007359e-06  3.21049293e-01 
 1.30000000e-01  4.01847598e-07  4.46688762e-02 -5.44239263e-16  1.10323356e-13  1.05717404e-05  1.38488423e-07  2.33224195e-06  3.21035395e-01 
 1.40000000e-01  5.23737739e-07  4.48432341e-02 -6.92607599e-16  1.09877823e-13  1.36358299e-05  1.54938712e-07  2.99383758e-06  3.21021498e-01 
 1.50000000e-01  6.80413602e-07  4.50649423e-02 -8.93110309e-16  1.09483456e-13  1.75206403e-05  1.77093774e-07  3.82909894e-06  3.21007601e-01 
 1.60000000e-01  8.81115957e-07  4.53452316e-02 -1.16229445e-15  1.09153644e-13  2.24273951e-05  2.05863036e-07  4.87989423e-06  3.20993704e-01 
 1.70000000e-01  1.13732572e-06  4.56973669e-02 -1.52103796e-15  1.08905379e-13  2.86022269e-05  2.42455290e-07  6.19734793e-06  3.20979807e-01 
 1.80000000e-01  1.46326228e-06  4.61367942e-02 -1.99545124e-15  1.08760011e-13  3.63456990e-05  2.88400913e-07  7.84380922e-06  3.20965910e-01 
 1.90000000e-01  1.87648628e-06  4.66812222e-02 -2.61822655e-15  1.08744382e-13  4.60241281e-05  3.45587676e-07  9.89519361e-06  3.20952013e-01 
 2.00000000e-01  2.39862494e-06  4.73506150e-02 -3.43093492e-15  1.08892735e-13  5.80826387e-05  4.16307303e-07  1.24436819e-05  3.20938116e-01 
 2.10000000e-01  3.05623524e-06  4.81670723e-02 -4.48797409e-15  1.09249993e-13  7.30594784e-05  5.03310245e-07  1.56006773e-05  3.20924219e-01 
 2.20000000e-01  3.88181311e-06  4.91545779e-02 -5.86289044e-15  1.09876987e-13  9.16005237e-05  6.09865520e-07  1.94997969e-05  3.20910322e-01 
 2.30000000e-01  4.91494180e-06  5.03386049e-02 -7.65751356e-15  1.10858029e-13  1.14472136e-04  7.39821176e-07  2.42995216e-05  3.20896425e-01 
 2.40000000e-01  6.20355043e-06  5.17455742e-02 -1.00137516e-14  1.12310709e-13  1.42569694e-04  8.97659046e-07  3.01849545e-05  3.20882528e-01 
 2.50000000e-01  7.80522278e-06  5.34021779e-02 -1.31270316e-14  1.14397103e-13  1.76918419e-04  1.08853551e-06  3.73680021e-05  3.20868631e-01 
 2.60000000e-01  9.78846058e-06  5.53345895e-02 -1.72591611e-14  1.17334572e-13  2.18662758e-04  1.31829831e-06  4.60852223e-05  3.20854734e-01 
 2.70000000e-01  1.22337687e-05  5.75675980e-02 -2.27466591e-14  1.21402900e-13  2.69040889e-04  1.59346885e-06  5.65926500e-05  3.20840837e-01 
 2.80000000e-01  1.52344006e-05  6.01237137e-02 -2.99983702e-14  1.26942636e-13  3.29342072e-04  1.92118032e-06  6.91571520e-05  3.20826941e-01 
 2.90000000e-01  1.88965882e-05  6.30223001e-02 -3.94739160e-14  1.34337584e-13  4.00846612e-04  2.30906480e-06  8.40442796e-05  3.20813044e-01 
 3.00000000e-01  2.33390931e-05  6.62787926e-02 -5.16336526e-14  1.43973632e-13  4.84751022e-04  2.76508779e-06  1.01503160e-04  3.20799147e-01 
 3.10000000e-01  2.86919550e-05  6.99040597e-02 -6.68540779e-14  1.56168691e-13  5.82084034e-04  3.29733472e-06  1.21749583e-04  3.20785250e-01 
 3.20000000e-01  3.50943876e-05  7.39039554e-02 -8.53139504e-14  1.71077931e-13  6.93621867e-04  3.91376143e-06  1.44948989e-04  3.20771354e-01 
 3.30000000e-01  4.26918605e-05  7.82790992e-02 -1.06877193e-13  1.88595748e-13  8.19812760e-04  4.62192694e-06  1.71201366e-04  3.20757457e-01 
 3.40000000e-01  5.16325141e-05  8.30248979e-02 -1.31020709e-13  2.08294444e-13  9.60720770e-04  5.42873044e-06  2.00530044e-04  3.20743560e-01 
 3.50000000e-01  6.20631398e-05  8.81318070e-02 -1.56858186e-13  2.29442350e-13  1.11599690e-03  6.34017590e-06  2.32875975e-04  3.20729664e-01 
 3.60000000e-01  7.41250274e-05  9.35858056e-02 -1.83277327e-13  2.51116536e-13  1.28488209e-03  7.36118415e-06  2.68098350e-04  3.20715767e-01 
 3.70000000e-01  8.79500016e-05  9.93690435e-02 -2.09149736e-13  2.72376790e-13  1.46624209e-03  8.49546695e-06  3.05981529e-04  3.20701871e-01 
 3.80000000e-01  1.03656951e-04  1.05460606e-01 -2.33532248e-13  2.92433597e-13  1.65862994e-03  9.74546951e-06  3.46247361e-04  3.20687974e-01 
 3.90000000e-01  1.21349084e-04  1.11837339e-01 -2.55789005e-13  3.10750995e-13  1.86036816e-03  1.11123799e-05  3.88571337e-04  3.20674078e-01 
 4.00000000e-01  1.41112073e-04  1.18474676e-01 -2.75612571e-13  3.27065636e-13  2.06964094e-03  1.25961973e-05  4.32600635e-04  3.20660181e-01 
 4.10000000e-01  1.63013120e-04  1.25347419e-01 -2.92969226e-13  3.41342483e-13  2.28458663e-03  1.41958458e-05  4.77972130e-04  3.20646285e-01 
 4.20000000e-01  1.87100923e-04  1.32430434e-01 -3.08011560e-13  3.53702756e-13  2.50338186e-03  1.59093187e-05  5.24328751e-04  3.20632388e-01 
 4.30000000e-01  2.13406412e-04  1.39699239e-01 -3.20993409e-13  3.64353364e-13  2.72431143e-03  1.77338392e-05  5.71333014e-04  3.20618492e-01 
 4.40000000e-01  2.41944099e-04  1.47130470e-01 -3.32204796e-13  3.73532667e-13  2.94582053e-03  1.96660229e-05  6.18677115e-04  3.20604595e-01 
 4.50000000e-01  2.72713864e-04  1.54702224e-01 -3.41930304e-13  3.81475583e-13  3.16654853e-03  2.17020338e-05  6.66089479e-04  3.20590699e-01 
 4.60000000e-01  3.05702985e-04  1.62394292e-01 -3.50426847e-13  3.88394813e-13  3.38534562e-03  2.38377257e-05  7.13338014e-04  3.20576803e-01 
 4.70000000e-01  3.40888269e-04  1.70188282e-01 -3.57914808e-13  3.94473215e-13  3.60127492e-03  2.60687646e-05  7.60230601e-04  3.20562906e-01 
 4.80000000e-01  3.78238141e-04  1.78067673e-01 -3.64577128e-13  3.99862849e-13  3.81360329e-03  2.83907323e-05  8.06613454e-04  3.20549010e-01 
 4.90000000e-01  4.17714599e-04  1.86017784e-01 -3.70562488e-13  4.04687479e-13  4.02178431e-03  3.07992091e-05  8.52367990e-04  3.20535114e-01 
 5.00000000e-01  4.59274976e-04  1.94025711e-01 -3.75990133e-13  4.09046495e-13  4.22543636e-03  3.32898389e-05  8.97406816e-04  3.20521218e-01 
 5.10000000e-01  5.02873474e-04  2.02080213e-01 -3.80954993e-13  4.13019099e-13  4.42431867e-03  3.58583771e-05  9.41669300e-04  3.20507321e-01 
 5.20000000e-01  5.48462444e-04  2.10171586e-01 -3.85532399e-13  4.16668203e-13  4.61830701e-03  3.85007255e-05  9.85117110e-04  3.20493425e-01 
 5.30000000e-01  5.95993442e-04  2.18291524e-01 -3.89782144e-13  4.20043778e-13  4.80737064e-03  4.12129549e-05  1.02772998e-03  3.20479529e-01 
 5.40000000e-01  6.45418058e-04  2.26432970e-01 -3.93751826e-13  4.23185626e-13  4.99155146e-03  4.39913190e-05  1.06950185e-03  3.20465633e-01 
 5.50000000e-01  6.96688551e-04  2.34589977e-01 -3.97479532e-13  4.26125611e-13  5.17094559e-03  4.68322602e-05  1.11043752e-03  3.20451737e-01 
 5.60000000e-01  7.49758308e-04  2.42757573e-01 -4.00995947e-13  4.28889411e-13  5.34568785e-03  4.97324104e-05  1.15054977e-03  3.20437841e-01 
 5.70000000e-01  8.04582175e-04  2.50931629e-01 -4.04326002e-13  4.31497891e-13  5.51593888e-03  5.26885880e-05  1.18985697e-03  3.20423945e-01 
 5.80000000e-01  8.61116655e-04  2.59108750e-01 -4.07490143e-13  4.33968162e-13  5.68187476e-03  5.56977913e-05  1.22838119e-03  3.20410049e-01 
 5.90000000e-01  9.19320026e-04  2.67286163e-01 -4.10505309e-13  4.36314399e-13  5.84367894e-03  5.87571899e-05  1.26614668e-03  3.20396153e-01 
 6.00000000e-01  9.79152385e-04  2.75461631e-01 -4.13385683e-13  4.38548466e-13  6.00153605e-03  6.18641161e-05  1.30317869e-03  3.20382257e-01 
