 v-sweep         @M1[id]         @M1[vdsat]      @M1[cgs]        @M1[cgg]        @m1[gm]         @m1[gds]        @m1[gmbs]       @m1[vth]       
 5.00000000e-02  5.96004119e-08  4.45217432e-02 -1.20358785e-16  7.88742702e-14  1.66163168e-06  3.41535012e-07  3.83925681e-07  3.21135952e-01 
 6.00000000e-02  8.22865607e-08  4.45437643e-02 -1.28324665e-16  7.84391006e-14  2.28278017e-06  2.79331280e-07  5.23835251e-07  3.21100288e-01 
 7.00000000e-02  1.11481255e-07  4.45726641e-02 -1.39499697e-16  7.80137542e-14  3.07557427e-06  2.37266049e-07  7.01308374e-07  3.21064624e-01 
 8.00000000e-02  1.49354986e-07  4.46104923e-02 -1.55085546e-16  7.75990133e-14  4.09500025e-06  2.12482170e-07  9.28223836e-07  3.21028960e-01 
 9.00000000e-02  1.98657773e-07  4.46598626e-02 -1.76720806e-16  7.71960246e-14  5.40946510e-06  2.01305992e-07  1.21922840e-06  3.20993296e-01 
 1.00000000e-01  2.62871098e-07  4.47240868e-02 -2.06632683e-16  7.68064220e-14  7.10392317e-06  2.01065663e-07  1.59239392e-06  3.20957632e-01 
 1.10000000e-01  3.46404615e-07  4.48073309e-02 -2.47833062e-16  7.64324871e-14  9.28388373e-06  2.10313700e-07  2.07004932e-06  3.20921969e-01 
 1.20000000e-01  4.54836183e-07  4.49147936e-02 -3.04366750e-16  7.60773527e-14  1.20801790e-05  2.28617266e-07  2.67976242e-06  3.20886305e-01 
 1.30000000e-01  5.95201430e-07  4.50529045e-02 -3.81616897e-16  7.57452546e-14  1.56545872e-05  2.56340202e-07  3.45549436e-06  3.20850641e-01 
 1.40000000e-01  7.76342843e-07  4.52295367e-02 -4.86667616e-16  7.54418310e-14  2.02065136e-05  2.94506461e-07  4.43897135e-06  3.20814977e-01 
 1.50000000e-01  1.00933113e-06  4.54542265e-02 -6.28718070e-16  7.51744674e-14  2.59810091e-05  3.44740314e-07  5.68133400e-06  3.20779314e-01 
 1.60000000e-01  1.30797456e-06  4.57383858e-02 -8.19542123e-16  7.49526800e-14  3.32784708e-05  4.09264208e-07  7.24513727e-06  3.20743650e-01 
 1.70000000e-01  1.68943558e-06  4.60954927e-02 -1.07400703e-15  7.47885519e-14  4.24664140e-05  4.90939300e-07  9.20678287e-06  3.20707987e-01 
 1.80000000e-01  2.17497757e-06  4.65412379e-02 -1.41072534e-15  7.46972810e-14  5.39936843e-05  5.93339446e-07  1.16594597e-05  3.20672323e-01 
 1.90000000e-01  2.79086795e-06  4.70936040e-02 -1.85303381e-15  7.46979985e-14  6.84073306e-05  7.20853143e-07  1.47166371e-05  3.20636660e-01 
 2.00000000e-01  3.56946407e-06  4.77728528e-02 -2.43065923e-15  7.48151534e-14  8.63720124e-05  8.78809177e-07  1.85160806e-05  3.20600996e-01 
 2.10000000e-01  4.55050442e-06  4.86013968e-02 -3.18257325e-15  7.50808750e-14  1.08691198e-04  1.07362072e-06  2.32242355e-05  3.20565333e-01 
 2.20000000e-01  5.78261591e-06  4.96035349e-02 -4.16154641e-15  7.55387371e-14  1.36328497e-04  1.31293951e-06  2.90406321e-05  3.20529670e-01 
 2.30000000e-01  7.32502540e-06  5.08050412e-02 -5.44070145e-15  7.62491792e-14  1.70426310e-04  1.60580679e-06  3.62017344e-05  3.20494006e-01 
 2.40000000e-01  9.24942930e-06  5.22326039e-02 -7.12193741e-15  7.72964920e-14  2.12317729e-04  1.96278175e-06  4.49833999e-05  3.20458343e-01 
 2.50000000e-01  1.16419285e-05  5.39131264e-02 -9.34547102e-15  7.87967629e-14  2.63526565e-04  2.39602237e-06  5.57009093e-05  3.20422680e-01 
 2.60000000e-01  1.46048813e-05  5.58729152e-02 -1.22988644e-14  8.09054475e-14  3.25749915e-04  2.91928936e-06  6.87054356e-05  3.20387017e-01 
 2.70000000e-01  1.82584726e-05  5.81367917e-02 -1.62226565e-14  8.38221971e-14  4.00818207e-04  3.54784376e-06  8.43759364e-05  3.20351354e-01 
 2.80000000e-01  2.27417545e-05  6.07271791e-02 -2.14081046e-14  8.77892171e-14  4.90629462e-04  4.29821364e-06  1.03105828e-04  3.20315691e-01 
 2.90000000e-01  2.82128961e-05  6.36632210e-02 -2.81809501e-14  9.30780899e-14  5.97057739e-04  5.18781712e-06  1.25284454e-04  3.20280027e-01 
 3.00000000e-01  3.48483991e-05  6.69599935e-02 -3.68645920e-14  9.99595123e-14  7.21839973e-04  6.23444603e-06  1.51274240e-04  3.20244364e-01 
 3.10000000e-01  4.28411041e-05  7.06278679e-02 -4.77186400e-14  1.08652488e-13  8.66450114e-04  7.45563592e-06  1.81385325e-04  3.20208701e-01 
 3.20000000e-01  5.23969194e-05  7.46720751e-02 -6.08573035e-14  1.19256512e-13  1.03197344e-03  8.86796869e-06  2.15850320e-04  3.20173039e-01 
 3.30000000e-01  6.37303511e-05  7.90925040e-02 -7.61672221e-14  1.31682872e-13  1.21899627e-03  1.04863705e-05  2.54802209e-04  3.20137376e-01 
 3.40000000e-01  7.70590622e-05  8.38837515e-02 -9.32597131e-14  1.45614062e-13  1.42752591e-03  1.23234745e-05  2.98258376e-04  3.20101713e-01 
 3.50000000e-01  9.25978286e-05  8.90354152e-02 -1.11493079e-13  1.60521114e-13  1.65695268e-03  1.43891125e-05  3.46113051e-04  3.20066050e-01 
 3.60000000e-01  1.10552349e-04  9.45326029e-02 -1.30074944e-13  1.75747568e-13  1.90606001e-03  1.66899864e-05  3.98139352e-04  3.20030387e-01 
 3.70000000e-01  1.31113395e-04  1.00356613e-01 -1.48212814e-13  1.90634107e-13  2.17308225e-03  1.92295421e-05  4.54000717e-04  3.19994724e-01 
 3.80000000e-01  1.54451749e-04  1.06485731e-01 -1.65254270e-13  2.04635377e-13  2.45580265e-03  2.20080463e-05  5.13270244e-04  3.19959062e-01 
 3.90000000e-01  1.80714277e-04  1.12896077e-01 -1.80768320e-13  2.17388484e-13  2.75167954e-03  2.50228398e-05  5.75455466e-04  3.19923399e-01 
 4.00000000e-01  2.10021341e-04  1.19562453e-01 -1.94555294e-13  2.28722273e-13  3.05798566e-03  2.82687228e-05  6.40025620e-04  3.19887736e-01 
 4.10000000e-01  2.42465622e-04  1.26459133e-01 -2.06605010e-13  2.38623409e-13  3.37194603e-03  3.17384224e-05  7.06438524e-04  3.19852074e-01 
 4.20000000e-01  2.78112252e-04  1.33560564e-01 -2.17034014e-13  2.47184715e-13  3.69086188e-03  3.54230903e-05  7.74164676e-04  3.19816411e-01 
 4.30000000e-01  3.17000098e-04  1.40841949e-01 -2.26026011e-13  2.54555809e-13  4.01221207e-03  3.93127867e-05  8.42706910e-04  3.19780749e-01 
 4.40000000e-01  3.59143922e-04  1.48279712e-01 -2.33787074e-13  2.60905823e-13  4.33372738e-03  4.33969193e-05  9.11614790e-04  3.19745086e-01 
 4.50000000e-01  4.04537150e-04  1.55851826e-01 -2.40517432e-13  2.66399788e-13  4.65343709e-03  4.76646169e-05  9.80493653e-04  3.19709424e-01 
 4.60000000e-01  4.53154983e-04  1.63538032e-01 -2.46396726e-13  2.71186185e-13  4.96969004e-03  5.21050289e-05  1.04900877e-03  3.19673761e-01 
 4.70000000e-01  5.04957607e-04  1.71319961e-01 -2.51578390e-13  2.75392109e-13  5.28115446e-03  5.67075518e-05  1.11688547e-03  3.19638099e-01 
 4.80000000e-01  5.59893319e-04  1.79181160e-01 -2.56189393e-13  2.79122913e-13  5.58680155e-03  6.14619887e-05  1.18390617e-03  3.19602437e-01 
 4.90000000e-01  6.17901434e-04  1.87107064e-01 -2.60332688e-13  2.82464147e-13  5.88587795e-03  6.63586517e-05  1.24990532e-03  3.19566774e-01 
 5.00000000e-01  6.78914876e-04  1.95084908e-01 -2.64090706e-13  2.85484393e-13  6.17787170e-03  7.13884191e-05  1.31476315e-03  3.19531112e-01 
 5.10000000e-01  7.42862414e-04  2.03103616e-01 -2.67528983e-13  2.88238231e-13  6.46247553e-03  7.65427561e-05  1.37839894e-03  3.19495450e-01 
 5.20000000e-01  8.09670533e-04  2.11153664e-01 -2.70699480e-13  2.90768976e-13  6.73955026e-03  8.18137123e-05  1.44076419e-03  3.19459788e-01 
 5.30000000e-01  8.79264947e-04  2.19226928e-01 -2.73643413e-13  2.93111010e-13  7.00909042e-03  8.71938996e-05  1.50183639e-03  3.19424125e-01 
 5.40000000e-01  9.51571778e-04  2.27316540e-01 -2.76393584e-13  2.95291711e-13  7.27119332e-03  9.26764613e-05  1.56161328e-03  3.19388463e-01 
 5.50000000e-01  1.02651846e-03  2.35416741e-01 -2.78976237e-13  2.97332991e-13  7.52603206e-03  9.82550341e-05  1.62010788e-03  3.19352801e-01 
 5.60000000e-01  1.10403437e-03  2.43522739e-01 -2.81412516e-13  2.99252510e-13  7.77383286e-03  1.03923708e-04  1.67734430e-03  3.19317139e-01 
 5.70000000e-01  1.18405130e-03  2.51630583e-01 -2.83719608e-13  3.01064622e-13  8.01485642e-03  1.09676985e-04  1.73335433e-03  3.19281477e-01 
 5.80000000e-01  1.26650367e-03  2.59737046e-01 -2.85911610e-13  3.02781103e-13  8.24938305e-03  1.15509744e-04  1.78817464e-03  3.19245815e-01 
 5.90000000e-01  1.35132873e-03  2.67839518e-01 -2.88000212e-13  3.04411712e-13  8.47770112e-03  1.21417198e-04  1.84184464e-03  3.19210153e-01 
 6.00000000e-01  1.43846656e-03  2.75935911e-01 -2.89995203e-13  3.05964623e-13  8.70009834e-03  1.27394868e-04  1.89440482e-03  3.19174491e-01 
 6.10000000e-01  1.52786004e-03  2.84024583e-01 -2.91904877e-13  3.07446755e-13  8.91685544e-03  1.33438549e-04  1.94589552e-03  3.19138830e-01 
 6.20000000e-01  1.61945476e-03  2.92104257e-01 -2.93736330e-13  3.08864028e-13  9.12824175e-03  1.39544283e-04  1.99635611e-03  3.19103168e-01 
 6.30000000e-01  1.71319892e-03  3.00173967e-01 -2.95495694e-13  3.10221555e-13  9.33451240e-03  1.45708336e-04  2.04582431e-03  3.19067506e-01 
 6.40000000e-01  1.80904313e-03  3.08233001e-01 -2.97188324e-13  3.11523797e-13  9.53590657e-03  1.51927176e-04  2.09433590e-03  3.19031844e-01 
 6.50000000e-01  1.90694028e-03  3.16280856e-01 -2.98818932e-13  3.12774679e-13  9.73264685e-03  1.58197457e-04  2.14192448e-03  3.18996183e-01 
 6.60000000e-01  2.00684538e-03  3.24317200e-01 -3.00391701e-13  3.13977682e-13  9.92493909e-03  1.64515998e-04  2.18862137e-03  3.18960521e-01 
 6.70000000e-01  2.10871537e-03  3.32341841e-01 -3.01910368e-13  3.15135917e-13  1.01129729e-02  1.70879772e-04  2.23445564e-03  3.18924859e-01 
 6.80000000e-01  2.21250898e-03  3.40354695e-01 -3.03378298e-13  3.16252182e-13  1.02969222e-02  1.77285895e-04  2.27945418e-03  3.18889198e-01 
 6.90000000e-01  2.31818660e-03  3.48355771e-01 -3.04798533e-13  3.17329006e-13  1.04769466e-02  1.83731609e-04  2.32364180e-03  3.18853536e-01 
 7.00000000e-01  2.42571010e-03  3.56345144e-01 -3.06173842e-13  3.18368690e-13  1.06531919e-02  1.90214278e-04  2.36704135e-03  3.18817875e-01 
 7.10000000e-01  2.53504272e-03  3.64322945e-01 -3.07506751e-13  3.19373332e-13  1.08257919e-02  1.96731378e-04  2.40967391e-03  3.18782213e-01 
 7.20000000e-01  2.64614896e-03  3.72289347e-01 -3.08799579e-13  3.20344859e-13  1.09948689e-02  2.03280487e-04  2.45155894e-03  3.18746552e-01 
 7.30000000e-01  2.75899447e-03  3.80244553e-01 -3.10054459e-13  3.21285041e-13  1.11605351e-02  2.09859282e-04  2.49271441e-03  3.18710890e-01 
 7.40000000e-01  2.87354594e-03  3.88188788e-01 -3.11273361e-13  3.22195514e-13  1.13228939e-02  2.16465532e-04  2.53315695e-03  3.18675229e-01 
 7.50000000e-01  2.98977106e-03  3.96122291e-01 -3.12458106e-13  3.23077788e-13  1.14820405e-02  2.23097092e-04  2.57290203e-03  3.18639568e-01 
 7.60000000e-01  3.10763839e-03  4.04045315e-01 -3.13610385e-13  3.23933266e-13  1.16380628e-02  2.29751898e-04  2.61196406e-03  3.18603906e-01 
 7.70000000e-01  3.22711732e-03  4.11958115e-01 -3.14731771e-13  3.24763254e-13  1.17910428e-02  2.36427965e-04  2.65035651e-03  3.18568245e-01 
 7.80000000e-01  3.34817801e-03  4.19860949e-01 -3.15823729e-13  3.25568965e-13  1.19410565e-02  2.43123380e-04  2.68809201e-03  3.18532584e-01 
 7.90000000e-01  3.47079135e-03  4.27754074e-01 -3.16887626e-13  3.26351534e-13  1.20881753e-02  2.49836303e-04  2.72518249e-03  3.18496923e-01 
 8.00000000e-01  3.59492890e-03  4.35637746e-01 -3.17924741e-13  3.27112020e-13  1.22324661e-02  2.56564959e-04  2.76163921e-03  3.18461262e-01 
 8.10000000e-01  3.72056283e-03  4.43512213e-01 -3.18936271e-13  3.27851415e-13  1.23739921e-02  2.63307640e-04  2.79747288e-03  3.18425601e-01 
 8.20000000e-01  3.84766595e-03  4.51377721e-01 -3.19923339e-13  3.28570651e-13  1.25128134e-02  2.70062699e-04  2.83269371e-03  3.18389939e-01 
 8.30000000e-01  3.97621160e-03  4.59234508e-01 -3.20886999e-13  3.29270599e-13  1.26489868e-02  2.76828546e-04  2.86731146e-03  3.18354278e-01 
 8.40000000e-01  4.10617367e-03  4.67082805e-01 -3.21828243e-13  3.29952082e-13  1.27825668e-02  2.83603653e-04  2.90133551e-03  3.18318617e-01 
 8.50000000e-01  4.23752659e-03  4.74922838e-01 -3.22748003e-13  3.30615872e-13  1.29136055e-02  2.90386543e-04  2.93477490e-03  3.18282957e-01 
 8.60000000e-01  4.37024526e-03  4.82754823e-01 -3.23647160e-13  3.31262698e-13  1.30421531e-02  2.97175796e-04  2.96763835e-03  3.18247296e-01 
 8.70000000e-01  4.50430508e-03  4.90578970e-01 -3.24526543e-13  3.31893246e-13  1.31682579e-02  3.03970039e-04  2.99993430e-03  3.18211635e-01 
 8.80000000e-01  4.63968188e-03  4.98395482e-01 -3.25386936e-13  3.32508164e-13  1.32919667e-02  3.10767953e-04  3.03167098e-03  3.18175974e-01 
 8.90000000e-01  4.77635197e-03  5.06204553e-01 -3.26229079e-13  3.33108066e-13  1.34133249e-02  3.17568263e-04  3.06285636e-03  3.18140313e-01 
 9.00000000e-01  4.91429209e-03  5.14006372e-01 -3.27053673e-13  3.33693532e-13  1.35323764e-02  3.24369741e-04  3.09349824e-03  3.18104652e-01 
 9.10000000e-01  5.05347938e-03  5.21801121e-01 -3.27861383e-13  3.34265111e-13  1.36491642e-02  3.31171207e-04  3.12360420e-03  3.18068992e-01 
 9.20000000e-01  5.19389142e-03  5.29588974e-01 -3.28652836e-13  3.34823323e-13  1.37637299e-02  3.37971520e-04  3.15318170e-03  3.18033331e-01 
 9.30000000e-01  5.33550616e-03  5.37370101e-01 -3.29428632e-13  3.35368661e-13  1.38761144e-02  3.44769582e-04  3.18223800e-03  3.17997670e-01 
 9.40000000e-01  5.47830198e-03  5.45144665e-01 -3.30189335e-13  3.35901595e-13  1.39863575e-02  3.51564336e-04  3.21078024e-03  3.17962010e-01 
 9.50000000e-01  5.62225761e-03  5.52912822e-01 -3.30935485e-13  3.36422569e-13  1.40944982e-02  3.58354763e-04  3.23881542e-03  3.17926349e-01 
 9.60000000e-01  5.76735217e-03  5.60674726e-01 -3.31667593e-13  3.36932006e-13  1.42005747e-02  3.65139883e-04  3.26635041e-03  3.17890689e-01 
 9.70000000e-01  5.91356515e-03  5.68430522e-01 -3.32386148e-13  3.37430309e-13  1.43046242e-02  3.71918752e-04  3.29339196e-03  3.17855028e-01 
 9.80000000e-01  6.06087640e-03  5.76180352e-01 -3.33091613e-13  3.37917863e-13  1.44066835e-02  3.78690459e-04  3.31994670e-03  3.17819368e-01 
 9.90000000e-01  6.20926612e-03  5.83924355e-01 -3.33784431e-13  3.38395030e-13  1.45067884e-02  3.85454130e-04  3.34602115e-03  3.17783707e-01 
 1.00000000e+00  6.35871485e-03  5.91662663e-01 -3.34465023e-13  3.38862161e-13  1.46049742e-02  3.92208923e-04  3.37162174e-03  3.17748047e-01 
 1.01000000e+00  6.50920349e-03  5.99395406e-01 -3.35133791e-13  3.39319587e-13  1.47012753e-02  3.98954028e-04  3.39675478e-03  3.17712386e-01 
 1.02000000e+00  6.66071326e-03  6.07122708e-01 -3.35791121e-13  3.39767626e-13  1.47957258e-02  4.05688664e-04  3.42142647e-03  3.17676726e-01 
 1.03000000e+00  6.81322571e-03  6.14844691e-01 -3.36437379e-13  3.40206579e-13  1.48883588e-02  4.12412081e-04  3.44564293e-03  3.17641066e-01 
 1.04000000e+00  6.96672272e-03  6.22561473e-01 -3.37072916e-13  3.40636738e-13  1.49792071e-02  4.19123559e-04  3.46941019e-03  3.17605406e-01 
 1.05000000e+00  7.12118646e-03  6.30273168e-01 -3.37698068e-13  3.41058378e-13  1.50683026e-02  4.25822404e-04  3.49273417e-03  3.17569745e-01 
 1.06000000e+00  7.27659946e-03  6.37979888e-01 -3.38313156e-13  3.41471765e-13  1.51556768e-02  4.32507949e-04  3.51562071e-03  3.17534085e-01 
 1.07000000e+00  7.43294450e-03  6.45681742e-01 -3.38918488e-13  3.41877152e-13  1.52413605e-02  4.39179553e-04  3.53807555e-03  3.17498425e-01 
 1.08000000e+00  7.59020469e-03  6.53378835e-01 -3.39514358e-13  3.42274783e-13  1.53253841e-02  4.45836601e-04  3.56010436e-03  3.17462765e-01 
 1.09000000e+00  7.74836344e-03  6.61071269e-01 -3.40101050e-13  3.42664889e-13  1.54077772e-02  4.52478500e-04  3.58171271e-03  3.17427105e-01 
 1.10000000e+00  7.90740443e-03  6.68759146e-01 -3.40678834e-13  3.43047696e-13  1.54885689e-02  4.59104682e-04  3.60290608e-03  3.17391445e-01 
 1.11000000e+00  8.06731163e-03  6.76442564e-01 -3.41247970e-13  3.43423416e-13  1.55677880e-02  4.65714602e-04  3.62368989e-03  3.17355785e-01 
 1.12000000e+00  8.22806928e-03  6.84121616e-01 -3.41808709e-13  3.43792255e-13  1.56454624e-02  4.72307734e-04  3.64406946e-03  3.17320125e-01 
 1.13000000e+00  8.38966192e-03  6.91796398e-01 -3.42361289e-13  3.44154411e-13  1.57216197e-02  4.78883577e-04  3.66405002e-03  3.17284465e-01 
 1.14000000e+00  8.55207432e-03  6.99466999e-01 -3.42905941e-13  3.44510074e-13  1.57962870e-02  4.85441646e-04  3.68363676e-03  3.17248805e-01 
 1.15000000e+00  8.71529155e-03  7.07133510e-01 -3.43442888e-13  3.44859426e-13  1.58694906e-02  4.91981479e-04  3.70283474e-03  3.17213145e-01 
 1.16000000e+00  8.87929890e-03  7.14796016e-01 -3.43972341e-13  3.45202642e-13  1.59412565e-02  4.98502631e-04  3.72164898e-03  3.17177486e-01 
 1.17000000e+00  9.04408194e-03  7.22454603e-01 -3.44494506e-13  3.45539891e-13  1.60116104e-02  5.05004675e-04  3.74008442e-03  3.17141826e-01 
 1.18000000e+00  9.20962648e-03  7.30109354e-01 -3.45009580e-13  3.45871336e-13  1.60805770e-02  5.11487204e-04  3.75814590e-03  3.17106166e-01 
 1.19000000e+00  9.37591858e-03  7.37760351e-01 -3.45517754e-13  3.46197132e-13  1.61481811e-02  5.17949825e-04  3.77583822e-03  3.17070506e-01 
 1.20000000e+00  9.54294453e-03  7.45407673e-01 -3.46019211e-13  3.46517430e-13  1.62144465e-02  5.24392163e-04  3.79316608e-03  3.17034847e-01 
 1.21000000e+00  9.71069085e-03  7.53051398e-01 -3.46514126e-13  3.46832376e-13  1.62793969e-02  5.30813858e-04  3.81013412e-03  3.16999187e-01 
 1.22000000e+00  9.87914430e-03  7.60691602e-01 -3.47002670e-13  3.47142109e-13  1.63430554e-02  5.37214566e-04  3.82674692e-03  3.16963527e-01 
 1.23000000e+00  1.00482919e-02  7.68328361e-01 -3.47485008e-13  3.47446763e-13  1.64054446e-02  5.43593958e-04  3.84300898e-03  3.16927868e-01 
 1.24000000e+00  1.02181207e-02  7.75961748e-01 -3.47961297e-13  3.47746470e-13  1.64665868e-02  5.49951718e-04  3.85892472e-03  3.16892208e-01 
 1.25000000e+00  1.03886184e-02  7.83591835e-01 -3.48431691e-13  3.48041354e-13  1.65265037e-02  5.56287545e-04  3.87449851e-03  3.16856549e-01 
 1.26000000e+00  1.05597723e-02  7.91218691e-01 -3.48896336e-13  3.48331537e-13  1.65852167e-02  5.62601150e-04  3.88973466e-03  3.16820889e-01 
 1.27000000e+00  1.07315705e-02  7.98842387e-01 -3.49355376e-13  3.48617136e-13  1.66427468e-02  5.68892257e-04  3.90463740e-03  3.16785230e-01 
 1.28000000e+00  1.09040010e-02  8.06462989e-01 -3.49808948e-13  3.48898264e-13  1.66991144e-02  5.75160604e-04  3.91921089e-03  3.16749570e-01 
 1.29000000e+00  1.10770519e-02  8.14080565e-01 -3.50257186e-13  3.49175029e-13  1.67543397e-02  5.81405938e-04  3.93345924e-03  3.16713911e-01 
 1.30000000e+00  1.12507118e-02  8.21695179e-01 -3.50700217e-13  3.49447539e-13  1.68084425e-02  5.87628019e-04  3.94738651e-03  3.16678252e-01 
