 v-sweep         @M1[id]         @M1[vdsat]      @M1[cgs]        @M1[cgg]        @m1[gm]         @m1[gds]        @m1[gmbs]       @m1[vth]       
 5.00000000e-02  1.56984218e-07  4.22989648e-02 -1.08276570e-16  8.32711705e-14  4.32762774e-06  8.46055832e-07  1.12603588e-06  3.78096804e-01 
 6.00000000e-02  2.15540431e-07  4.23047066e-02 -1.09805503e-16  8.27832097e-14  5.92427244e-06  6.86903973e-07  1.53225861e-06  3.78068386e-01 
 7.00000000e-02  2.90877259e-07  4.23122587e-02 -1.12124574e-16  8.23042458e-14  7.96816004e-06  5.82061453e-07  2.04895221e-06  3.78039969e-01 
 8.00000000e-02  3.88667352e-07  4.23221728e-02 -1.15520909e-16  8.18342772e-14  1.06066791e-05  5.20625068e-07  2.71198440e-06  3.78011551e-01 
 9.00000000e-02  5.16126595e-07  4.23351622e-02 -1.20386011e-16  8.13733941e-14  1.40249846e-05  4.92092319e-07  3.56604330e-06  3.77983134e-01 
 1.00000000e-01  6.82464557e-07  4.23521448e-02 -1.27253673e-16  8.09218083e-14  1.84562150e-05  4.89459186e-07  4.66701402e-06  3.77954716e-01 
 1.10000000e-01  8.99461621e-07  4.23742978e-02 -1.36851004e-16  8.04798936e-14  2.41942807e-05  5.09055865e-07  6.08493056e-06  3.77926299e-01 
 1.20000000e-01  1.18218034e-06  4.24031239e-02 -1.50166911e-16  8.00482404e-14  3.16091138e-05  5.49779811e-07  7.90746616e-06  3.77897881e-01 
 1.30000000e-01  1.54983562e-06  4.24405308e-02 -1.68543436e-16  7.96277283e-14  4.11646601e-05  6.12496755e-07  1.02440256e-05  3.77869464e-01 
 1.40000000e-01  2.02685553e-06  4.24889271e-02 -1.93796499e-16  7.92196236e-14  5.34400171e-05  6.99704857e-07  1.32305321e-05  3.77841046e-01 
 1.50000000e-01  2.64416886e-06  4.25513338e-02 -2.28373566e-16  7.88257054e-14  6.91541637e-05  8.15406296e-07  1.70350123e-05  3.77812629e-01 
 1.60000000e-01  3.44075940e-06  4.26315124e-02 -2.75556216e-16  7.84484292e-14  8.91947888e-05  9.65124936e-07  2.18641000e-05  3.77784212e-01 
 1.70000000e-01  4.46553233e-06  4.27341095e-02 -3.39714813e-16  7.80911330e-14  1.14651843e-04  1.15602850e-06  2.79706074e-05  3.77755794e-01 
 1.80000000e-01  5.77954470e-06  4.28648133e-02 -4.26619952e-16  7.77582895e-14  1.46856640e-04  1.39713122e-06  3.56623653e-05  3.77727377e-01 
 1.90000000e-01  7.45866162e-06  4.30305195e-02 -5.43810655e-16  7.74558065e-14  1.87427643e-04  1.69956484e-06  4.53126013e-05  3.77698959e-01 
 2.00000000e-01  9.59671278e-06  4.32394975e-02 -7.01013891e-16  7.71913697e-14  2.38324413e-04  2.07691343e-06  5.73722144e-05  3.77670542e-01 
 2.10000000e-01  1.23092405e-05  4.35015467e-02 -9.10609334e-16  7.69748257e-14  3.01911582e-04  2.54561216e-06  7.23843776e-05  3.77642125e-01 
 2.20000000e-01  1.57379505e-05  4.38281299e-02 -1.18814910e-15  7.68186119e-14  3.81034839e-04  3.12541314e-06  9.10019315e-05  3.77613707e-01 
 2.30000000e-01  2.00559946e-05  4.42324676e-02 -1.55299316e-15  7.67382830e-14  4.79110586e-04  3.83992113e-06  1.14007943e-04  3.77585290e-01 
 2.40000000e-01  2.54742264e-05  4.47295748e-02 -2.02922281e-15  7.67532648e-14  6.00229666e-04  4.71719929e-06  1.42339509e-04  3.77556873e-01 
 2.50000000e-01  3.22485644e-05  4.53362214e-02 -2.64713941e-15  7.68880826e-14  7.49273035e-04  5.79043692e-06  1.77114286e-04  3.77528456e-01 
 2.60000000e-01  4.06885531e-05  4.60708005e-02 -3.44578736e-15  7.71744186e-14  9.32032960e-04  7.09865767e-06  2.19658282e-04  3.77500038e-01 
 2.70000000e-01  5.11671223e-05  4.69530884e-02 -4.47696405e-15  7.76543775e-14  1.15532743e-03  8.68742620e-06  2.71532058e-04  3.77471621e-01 
 2.80000000e-01  6.41313863e-05  4.80038913e-02 -5.81101260e-15  7.83852054e-14  1.42708821e-03  1.06094848e-05  3.34550940e-04  3.77443204e-01 
 2.90000000e-01  8.01140870e-05  4.92445756e-02 -7.54432234e-15  7.94454155e-14  1.75639576e-03  1.29252226e-05  4.10793157e-04  3.77414787e-01 
 3.00000000e-01  9.97449910e-05  5.06964935e-02 -9.80791875e-15  8.09418333e-14  2.15342860e-03  1.57028550e-05  5.02588664e-04  3.77386370e-01 
 3.10000000e-01  1.23761210e-04  5.23803218e-02 -1.27757895e-14  8.30164770e-14  2.62929322e-03  1.90181715e-05  6.12481076e-04  3.77357953e-01 
 3.20000000e-01  1.53015094e-04  5.43153455e-02 -1.66705910e-14  8.58513670e-14  3.19570565e-03  2.29537187e-05  7.43156333e-04  3.77329535e-01 
 3.30000000e-01  1.88477584e-04  5.65186905e-02 -2.17508034e-14  8.96560273e-14  3.86397235e-03  2.75972358e-05  8.97332384e-04  3.77301118e-01 
 3.40000000e-01  2.31216347e-04  5.90034937e-02 -2.82797064e-14  9.46396328e-14  4.64283653e-03  3.30367603e-05  1.07753279e-03  3.77272701e-01 
 3.50000000e-01  2.82404071e-04  6.17795731e-02 -3.66114176e-14  1.01101970e-13  5.54345300e-03  3.93603911e-05  1.28599954e-03  3.77244284e-01 
 3.60000000e-01  3.43306620e-04  6.48532001e-02 -4.70112669e-14  1.09262835e-13  6.57320716e-03  4.66535662e-05  1.52453265e-03  3.77215867e-01 
 3.70000000e-01  4.15250407e-04  6.82263361e-02 -5.96333251e-14  1.19252332e-13  7.73653697e-03  5.49943924e-05  1.79428390e-03  3.77187450e-01 
 3.80000000e-01  4.99589419e-04  7.18965088e-02 -7.44449534e-14  1.31048935e-13  9.03428030e-03  6.44500217e-05  2.09560977e-03  3.77159033e-01 
 3.90000000e-01  5.97666710e-04  7.58568938e-02 -9.11688970e-14  1.44431485e-13  1.04632431e-02  7.50734334e-05  2.42797329e-03  3.77130616e-01 
 4.00000000e-01  7.10772961e-04  8.00965928e-02 -1.09274593e-13  1.58971055e-13  1.20160584e-02  8.69009433e-05  2.78991016e-03  3.77102199e-01 
 4.10000000e-01  8.40105212e-04  8.46010882e-02 -1.28039405e-13  1.74079935e-13  1.36813677e-02  9.99506797e-05  3.17906613e-03  3.77073782e-01 
 4.20000000e-01  9.86728987e-04  8.93528356e-02 -1.46670273e-13  1.89110336e-13  1.54443145e-02  1.14222148e-04  3.59230304e-03  3.77045365e-01 
 4.30000000e-01  1.15154670e-03  9.43319472e-02 -1.64444315e-13  2.03469265e-13  1.72872948e-02  1.29696873e-04  4.02586133e-03  3.77016949e-01 
 4.40000000e-01  1.33527451e-03  9.95169175e-02 -1.80817736e-13  2.16708134e-13  1.91908801e-02  1.46339975e-04  4.47556033e-03  3.76988532e-01 
 4.50000000e-01  1.53842891e-03  1.04885341e-01 -1.95472624e-13  2.28561964e-13  2.11348104e-02  1.64102466e-04  4.93701381e-03  3.76960115e-01 
 4.60000000e-01  1.76132310e-03  1.10414582e-01 -2.08303383e-13  2.38939239e-13  2.30989583e-02  1.82923986e-04  5.40583927e-03  3.76931698e-01 
 4.70000000e-01  2.00407265e-03  1.16082364e-01 -2.19366186e-13  2.47881249e-13  2.50641795e-02  2.02735707e-04  5.87784284e-03  3.76903281e-01 
 4.80000000e-01  2.26660880e-03  1.21867255e-01 -2.28818135e-13  2.55512700e-13  2.70129932e-02  2.23463170e-04  6.34916726e-03  3.76874864e-01 
 4.90000000e-01  2.54869763e-03  1.27749052e-01 -2.36864216e-13  2.61998407e-13  2.89300632e-02  2.45028882e-04  6.81639725e-03  3.76846447e-01 
 5.00000000e-01  2.84996303e-03  1.33709049e-01 -2.43719409e-13  2.67512215e-13  3.08024773e-02  2.67354537e-04  7.27662149e-03  3.76818031e-01 
 5.10000000e-01  3.16991158e-03  1.39730208e-01 -2.49585849e-13  2.72218157e-13  3.26198435e-02  2.90362840e-04  7.72745565e-03  3.76789614e-01 
 5.20000000e-01  3.50795761e-03  1.45797238e-01 -2.54641618e-13  2.76261112e-13  3.43742355e-02  3.13978892e-04  8.16703322e-03  3.76761197e-01 
 5.30000000e-01  3.86344713e-03  1.51896611e-01 -2.59037192e-13  2.79763736e-13  3.60600247e-02  3.38131198e-04  8.59397217e-03  3.76732781e-01 
 5.40000000e-01  4.23567965e-03  1.58016512e-01 -2.62896248e-13  2.82827008e-13  3.76736369e-02  3.62752328e-04  9.00732560e-03  3.76704364e-01 
 5.50000000e-01  4.62392737e-03  1.64146754e-01 -2.66318609e-13  2.85532540e-13  3.92132673e-02  3.87779302e-04  9.40652352e-03  3.76675947e-01 
 5.60000000e-01  5.02745147e-03  1.70278659e-01 -2.69383907e-13  2.87945517e-13  4.06785826e-02  4.13153752e-04  9.79131173e-03  3.76647530e-01 
 5.70000000e-01  5.44551534e-03  1.76404929e-01 -2.72155242e-13  2.90117645e-13  4.20704299e-02  4.38821921e-04  1.01616919e-02  3.76619114e-01 
 5.80000000e-01  5.87739512e-03  1.82519508e-01 -2.74682463e-13  2.92089807e-13  4.33905675e-02  4.64734545e-04  1.05178660e-02  3.76590697e-01 
 5.90000000e-01  6.32238759e-03  1.88617438e-01 -2.77004946e-13  2.93894322e-13  4.46414253e-02  4.90846652e-04  1.08601873e-02  3.76562281e-01 
 6.00000000e-01  6.77981589e-03  1.94694727e-01 -2.79153868e-13  2.95556796e-13  4.58259001e-02  5.17117321e-04  1.11891171e-02  3.76533864e-01 
 6.10000000e-01  7.24903335e-03  2.00748221e-01 -2.81154022e-13  2.97097600e-13  4.69471841e-02  5.43509402e-04  1.15051901e-02  3.76505447e-01 
 6.20000000e-01  7.72942574e-03  2.06775486e-01 -2.83025245e-13  2.98533037e-13  4.80086273e-02  5.69989238e-04  1.18089851e-02  3.76477031e-01 
 6.30000000e-01  8.22041237e-03  2.12774702e-01 -2.84783526e-13  2.99876251e-13  4.90136293e-02  5.96526383e-04  1.21011023e-02  3.76448614e-01 
 6.40000000e-01  8.72144612e-03  2.18744567e-01 -2.86441865e-13  3.01137931e-13  4.99655571e-02  6.23093326e-04  1.23821458e-02  3.76420198e-01 
 6.50000000e-01  9.23201287e-03  2.24684211e-01 -2.88010936e-13  3.02326847e-13  5.08676849e-02  6.49665241e-04  1.26527110e-02  3.76391781e-01 
 6.60000000e-01  9.75163034e-03  2.30593128e-01 -2.89499588e-13  3.03450273e-13  5.17231519e-02  6.76219736e-04  1.29133747e-02  3.76363365e-01 
 6.70000000e-01  1.02798467e-02  2.36471107e-01 -2.90915240e-13  3.04514301e-13  5.25349352e-02  7.02736637e-04  1.31646891e-02  3.76334948e-01 
 6.80000000e-01  1.08162386e-02  2.42318179e-01 -2.92264174e-13  3.05524090e-13  5.33058338e-02  7.29197779e-04  1.34071780e-02  3.76306532e-01 
 6.90000000e-01  1.13604100e-02  2.48134570e-01 -2.93551769e-13  3.06484054e-13  5.40384609e-02  7.55586820e-04  1.36413343e-02  3.76278116e-01 
 7.00000000e-01  1.19119894e-02  2.53920664e-01 -2.94782676e-13  3.07398005e-13  5.47352441e-02  7.81889068e-04  1.38676193e-02  3.76249699e-01 
 7.10000000e-01  1.24706290e-02  2.59676963e-01 -2.95960954e-13  3.08269272e-13  5.53984288e-02  8.08091329e-04  1.40864630e-02  3.76221283e-01 
 7.20000000e-01  1.30360020e-02  2.65404068e-01 -2.97090181e-13  3.09100784e-13  5.60300861e-02  8.34181767e-04  1.42982651e-02  3.76192866e-01 
 7.30000000e-01  1.36078017e-02  2.71102647e-01 -2.98173532e-13  3.09895140e-13  5.66321220e-02  8.60149772e-04  1.45033958e-02  3.76164450e-01 
 7.40000000e-01  1.41857395e-02  2.76773422e-01 -2.99213850e-13  3.10654665e-13  5.72062883e-02  8.85985854e-04  1.47021981e-02  3.76136034e-01 
 7.50000000e-01  1.47695433e-02  2.82417148e-01 -3.00213693e-13  3.11381451e-13  5.77541938e-02  9.11681534e-04  1.48949895e-02  3.76107617e-01 
 7.60000000e-01  1.53589566e-02  2.88034607e-01 -3.01175381e-13  3.12077395e-13  5.82773163e-02  9.37229251e-04  1.50820636e-02  3.76079201e-01 
 7.70000000e-01  1.59537369e-02  2.93626588e-01 -3.02101027e-13  3.12744220e-13  5.87770131e-02  9.62622280e-04  1.52636921e-02  3.76050785e-01 
 7.80000000e-01  1.65536546e-02  2.99193888e-01 -3.02992564e-13  3.13383505e-13  5.92545324e-02  9.87854656e-04  1.54401269e-02  3.76022368e-01 
 7.90000000e-01  1.71584921e-02  3.04737298e-01 -3.03851768e-13  3.13996700e-13  5.97110230e-02  1.01292110e-03  1.56116016e-02  3.75993952e-01 
 8.00000000e-01  1.77680427e-02  3.10257601e-01 -3.04680278e-13  3.14585141e-13  6.01475442e-02  1.03781698e-03  1.57783330e-02  3.75965536e-01 
 8.10000000e-01  1.83821099e-02  3.15755569e-01 -3.05479609e-13  3.15150063e-13  6.05650741e-02  1.06253820e-03  1.59405229e-02  3.75937120e-01 
 8.20000000e-01  1.90005065e-02  3.21231956e-01 -3.06251168e-13  3.15692613e-13  6.09645179e-02  1.08708122e-03  1.60983594e-02  3.75908704e-01 
 8.30000000e-01  1.96230540e-02  3.26687498e-01 -3.06996263e-13  3.16213857e-13  6.13467147e-02  1.11144296e-03  1.62520181e-02  3.75880287e-01 
 8.40000000e-01  2.02495821e-02  3.32122914e-01 -3.07716115e-13  3.16714788e-13  6.17124445e-02  1.13562076e-03  1.64016632e-02  3.75851871e-01 
 8.50000000e-01  2.08799278e-02  3.37538899e-01 -3.08411861e-13  3.17196334e-13  6.20624338e-02  1.15961239e-03  1.65474488e-02  3.75823455e-01 
 8.60000000e-01  2.15139351e-02  3.42936126e-01 -3.09084571e-13  3.17659364e-13  6.23973606e-02  1.18341595e-03  1.66895196e-02  3.75795039e-01 
 8.70000000e-01  2.21514547e-02  3.48315247e-01 -3.09735243e-13  3.18104691e-13  6.27178594e-02  1.20702987e-03  1.68280117e-02  3.75766623e-01 
 8.80000000e-01  2.27923433e-02  3.53676892e-01 -3.10364817e-13  3.18533079e-13  6.30245255e-02  1.23045290e-03  1.69630535e-02  3.75738207e-01 
 8.90000000e-01  2.34364634e-02  3.59021668e-01 -3.10974177e-13  3.18945247e-13  6.33179181e-02  1.25368402e-03  1.70947665e-02  3.75709791e-01 
 9.00000000e-01  2.40836828e-02  3.64350161e-01 -3.11564153e-13  3.19341872e-13  6.35985641e-02  1.27672252e-03  1.72232654e-02  3.75681375e-01 
 9.10000000e-01  2.47338747e-02  3.69662934e-01 -3.12135531e-13  3.19723590e-13  6.38669606e-02  1.29956785e-03  1.73486591e-02  3.75652959e-01 
 9.20000000e-01  2.53869167e-02  3.74960531e-01 -3.12689051e-13  3.20091004e-13  6.41235781e-02  1.32221972e-03  1.74710512e-02  3.75624543e-01 
 9.30000000e-01  2.60426914e-02  3.80243474e-01 -3.13225413e-13  3.20444681e-13  6.43688620e-02  1.34467799e-03  1.75905399e-02  3.75596127e-01 
 9.40000000e-01  2.67010854e-02  3.85512265e-01 -3.13745279e-13  3.20785161e-13  6.46032352e-02  1.36694271e-03  1.77072190e-02  3.75567711e-01 
 9.50000000e-01  2.73619896e-02  3.90767389e-01 -3.14249275e-13  3.21112951e-13  6.48270996e-02  1.38901408e-03  1.78211778e-02  3.75539295e-01 
 9.60000000e-01  2.80252987e-02  3.96009311e-01 -3.14737997e-13  3.21428534e-13  6.50408378e-02  1.41089243e-03  1.79325019e-02  3.75510879e-01 
 9.70000000e-01  2.86909113e-02  4.01238479e-01 -3.15212007e-13  3.21732368e-13  6.52448146e-02  1.43257823e-03  1.80412726e-02  3.75482463e-01 
 9.80000000e-01  2.93587293e-02  4.06455322e-01 -3.15671841e-13  3.22024887e-13  6.54393781e-02  1.45407206e-03  1.81475683e-02  3.75454047e-01 
 9.90000000e-01  3.00286583e-02  4.11660256e-01 -3.16118008e-13  3.22306504e-13  6.56248610e-02  1.47537459e-03  1.82514636e-02  3.75425631e-01 
 1.00000000e+00  3.07006069e-02  4.16853679e-01 -3.16550993e-13  3.22577611e-13  6.58015816e-02  1.49648661e-03  1.83530305e-02  3.75397215e-01 
 1.01000000e+00  3.13744870e-02  4.22035973e-01 -3.16971255e-13  3.22838583e-13  6.59698444e-02  1.51740897e-03  1.84523377e-02  3.75368799e-01 
 1.02000000e+00  3.20502134e-02  4.27207510e-01 -3.17379233e-13  3.23089773e-13  6.61299416e-02  1.53814260e-03  1.85494514e-02  3.75340384e-01 
 1.03000000e+00  3.27277036e-02  4.32368643e-01 -3.17775347e-13  3.23331523e-13  6.62821529e-02  1.55868850e-03  1.86444351e-02  3.75311968e-01 
 1.04000000e+00  3.34068782e-02  4.37519715e-01 -3.18159995e-13  3.23564154e-13  6.64267473e-02  1.57904772e-03  1.87373501e-02  3.75283552e-01 
 1.05000000e+00  3.40876600e-02  4.42661055e-01 -3.18533558e-13  3.23787976e-13  6.65639827e-02  1.59922137e-03  1.88282551e-02  3.75255136e-01 
 1.06000000e+00  3.47699748e-02  4.47792981e-01 -3.18896400e-13  3.24003283e-13  6.66941072e-02  1.61921061e-03  1.89172067e-02  3.75226720e-01 
 1.07000000e+00  3.54537504e-02  4.52915799e-01 -3.19248868e-13  3.24210356e-13  6.68173589e-02  1.63901664e-03  1.90042596e-02  3.75198305e-01 
 1.08000000e+00  3.61389171e-02  4.58029803e-01 -3.19591297e-13  3.24409466e-13  6.69339673e-02  1.65864067e-03  1.90894662e-02  3.75169889e-01 
 1.09000000e+00  3.68254076e-02  4.63135277e-01 -3.19924003e-13  3.24600869e-13  6.70441528e-02  1.67808398e-03  1.91728774e-02  3.75141473e-01 
 1.10000000e+00  3.75131566e-02  4.68232495e-01 -3.20247292e-13  3.24784812e-13  6.71481279e-02  1.69734784e-03  1.92545419e-02  3.75113057e-01 
 1.11000000e+00  3.82021007e-02  4.73321722e-01 -3.20561456e-13  3.24961531e-13  6.72460970e-02  1.71643356e-03  1.93345069e-02  3.75084642e-01 
 1.12000000e+00  3.88921790e-02  4.78403213e-01 -3.20866775e-13  3.25131253e-13  6.73382569e-02  1.73534247e-03  1.94128179e-02  3.75056226e-01 
 1.13000000e+00  3.95833320e-02  4.83477212e-01 -3.21163518e-13  3.25294194e-13  6.74247975e-02  1.75407590e-03  1.94895190e-02  3.75027810e-01 
 1.14000000e+00  4.02755024e-02  4.88543957e-01 -3.21451941e-13  3.25450564e-13  6.75059017e-02  1.77263520e-03  1.95646525e-02  3.74999395e-01 
 1.15000000e+00  4.09686345e-02  4.93603677e-01 -3.21732294e-13  3.25600561e-13  6.75817456e-02  1.79102173e-03  1.96382595e-02  3.74970979e-01 
 1.16000000e+00  4.16626745e-02  4.98656594e-01 -3.22004812e-13  3.25744377e-13  6.76524993e-02  1.80923685e-03  1.97103795e-02  3.74942564e-01 
 1.17000000e+00  4.23575700e-02  5.03702920e-01 -3.22269726e-13  3.25882198e-13  6.77183266e-02  1.82728194e-03  1.97810510e-02  3.74914148e-01 
 1.18000000e+00  4.30532705e-02  5.08742862e-01 -3.22527253e-13  3.26014200e-13  6.77793857e-02  1.84515835e-03  1.98503109e-02  3.74885732e-01 
 1.19000000e+00  4.37497268e-02  5.13776617e-01 -3.22777607e-13  3.26140554e-13  6.78358292e-02  1.86286745e-03  1.99181950e-02  3.74857317e-01 
 1.20000000e+00  4.44468913e-02  5.18804380e-01 -3.23020989e-13  3.26261424e-13  6.78878043e-02  1.88041061e-03  1.99847380e-02  3.74828901e-01 
 1.21000000e+00  4.51447178e-02  5.23826334e-01 -3.23257595e-13  3.26376967e-13  6.79354529e-02  1.89778919e-03  2.00499734e-02  3.74800486e-01 
 1.22000000e+00  4.58431615e-02  5.28842660e-01 -3.23487615e-13  3.26487336e-13  6.79789124e-02  1.91500454e-03  2.01139336e-02  3.74772070e-01 
 1.23000000e+00  4.65421788e-02  5.33853531e-01 -3.23711229e-13  3.26592677e-13  6.80183150e-02  1.93205801e-03  2.01766501e-02  3.74743655e-01 
 1.24000000e+00  4.72417277e-02  5.38859113e-01 -3.23928613e-13  3.26693131e-13  6.80537887e-02  1.94895094e-03  2.02381533e-02  3.74715239e-01 
 1.25000000e+00  4.79417671e-02  5.43859569e-01 -3.24139935e-13  3.26788834e-13  6.80854568e-02  1.96568465e-03  2.02984725e-02  3.74686824e-01 
 1.26000000e+00  4.86422573e-02  5.48855054e-01 -3.24345359e-13  3.26879917e-13  6.81134388e-02  1.98226048e-03  2.03576363e-02  3.74658408e-01 
 1.27000000e+00  4.93431595e-02  5.53845720e-01 -3.24545042e-13  3.26966507e-13  6.81378498e-02  1.99867973e-03  2.04156723e-02  3.74629993e-01 
 1.28000000e+00  5.00444364e-02  5.58831712e-01 -3.24739135e-13  3.27048727e-13  6.81588011e-02  2.01494369e-03  2.04726073e-02  3.74601577e-01 
 1.29000000e+00  5.07460513e-02  5.63813171e-01 -3.24927784e-13  3.27126694e-13  6.81764003e-02  2.03105365e-03  2.05284672e-02  3.74573162e-01 
 1.30000000e+00  5.14479689e-02  5.68790232e-01 -3.25111133e-13  3.27200521e-13  6.81907514e-02  2.04701089e-03  2.05832771e-02  3.74544746e-01 
