 v-sweep         @M1[id]         @M1[vdsat]      @M1[cgs]        @M1[cgg]        @M1[cds]        @m1[cdd]        @m1[gm]         @m1[gds]        @m1[gmbs]       @m1[vth]       
 5.00000000e-02  7.27011006e-07  3.94575899e-02 -2.45676202e-17  1.86302044e-14  6.71007816e-19  8.06867979e-21  2.00204673e-05  5.27028966e-06  5.19298077e-06  3.74753135e-01 
 6.00000000e-02  1.01748258e-06  3.94594015e-02 -2.50829933e-17  1.85211626e-14  9.32657127e-19 -6.17782494e-21  2.79258101e-05  5.29558301e-06  7.19813189e-06  3.74058385e-01 
 7.00000000e-02  1.40099864e-06  3.94631116e-02 -2.58577650e-17  1.84141880e-14  1.29571465e-18 -2.40958752e-20  3.83049758e-05  5.72084033e-06  9.81320351e-06  3.73363636e-01 
 8.00000000e-02  1.91042988e-06  3.94693396e-02 -2.69937264e-17  1.83093063e-14  1.80030936e-18 -4.80122299e-20  5.20062635e-05  6.56193591e-06  1.32435111e-05  3.72668886e-01 
 9.00000000e-02  2.58855410e-06  3.94788982e-02 -2.86326197e-17  1.82065750e-14  2.50210417e-18 -8.08846319e-20  7.01182339e-05  7.86094607e-06  1.77505130e-05  3.71974137e-01 
 1.00000000e-01  3.49111785e-06  3.94928481e-02 -3.09716522e-17  1.81060957e-14  3.47838161e-18 -1.26683460e-19  9.40376793e-05  9.69770093e-06  2.36674802e-05  3.71279388e-01 
 1.10000000e-01  4.69072129e-06  3.95125676e-02 -3.42847849e-17  1.80080298e-14  4.83638100e-18 -1.90855126e-19  1.25552907e-04  1.21937409e-05  3.14185470e-05  3.70584639e-01 
 1.20000000e-01  6.28165314e-06  3.95398368e-02 -3.89517707e-17  1.79126207e-14  6.72469600e-18 -2.80928700e-19  1.66943084e-04  1.55166263e-05  4.15412693e-05  3.69889890e-01 
 1.30000000e-01  8.38586012e-06  3.95769399e-02 -4.54974091e-17  1.78202238e-14  9.34876037e-18 -4.07328196e-19  2.21095251e-04  1.98865607e-05  5.47130457e-05  3.69195141e-01 
 1.40000000e-01  1.11602602e-05  3.96267862e-02 -5.46439485e-17  1.77313461e-14  1.29916926e-17 -5.84461722e-19  2.91640557e-04  2.55854869e-05  7.17817497e-05  3.68500392e-01 
 1.50000000e-01  1.48056222e-05  3.96930503e-02 -6.73798511e-17  1.76466994e-14  1.80419964e-17 -8.32169319e-19  3.83110922e-04  3.29684790e-05  9.38008595e-05  3.67805643e-01 
 1.60000000e-01  1.95772424e-05  3.97803299e-02 -8.50479717e-17  1.75672676e-14  2.50297593e-17 -1.17761885e-18  5.01117040e-04  4.24772700e-05  1.22069324e-04  3.67110895e-01 
 1.70000000e-01  2.57976572e-05  3.98943168e-02 -1.09455283e-16  1.74943914e-14  3.46729725e-17 -1.65773917e-18  6.52548546e-04  5.46558230e-05  1.58176411e-04  3.66416146e-01 
 1.80000000e-01  3.38716379e-05  4.00419744e-02 -1.43004456e-16  1.74298698e-14  4.79353947e-17 -2.32227013e-18  8.45797264e-04  7.01679104e-05  2.04051819e-04  3.65721398e-01 
 1.90000000e-01  4.43037228e-05  4.02317091e-02 -1.88845522e-16  1.73760781e-14  6.60972165e-17 -3.23750162e-18  1.09100459e-03  8.98167007e-05  2.62021383e-04  3.65026649e-01 
 2.00000000e-01  5.77185532e-05  4.04735205e-02 -2.51046156e-16  1.73361009e-14  9.08404822e-17 -4.49081050e-18  1.40033347e-03  1.14566316e-04  3.34868537e-04  3.64331901e-01 
 2.10000000e-01  7.48842693e-05  4.07791091e-02 -3.34787740e-16  1.73138859e-14  1.24354599e-16 -6.19628067e-18  1.78826278e-03  1.45565124e-04  4.25901045e-04  3.63637153e-01 
 2.20000000e-01  9.67391664e-05  4.11619175e-02 -4.46620039e-16  1.73144438e-14  1.69475927e-16 -8.50214475e-18  2.27189490e-03  1.84170027e-04  5.39020835e-04  3.62942404e-01 
 2.30000000e-01  1.24421647e-04  4.16370781e-02 -5.94855673e-16  1.73441562e-14  2.29890967e-16 -1.16016013e-17  2.87125358e-03  2.31969985e-04  6.78791550e-04  3.62247656e-01 
 2.40000000e-01  1.59303143e-04  4.22212434e-02 -7.90246954e-16  1.74113002e-14  3.10451738e-16 -1.57495713e-17  3.60952622e-03  2.90805396e-04  8.50493143e-04  3.61552908e-01 
 2.50000000e-01  2.03023023e-04  4.29322777e-02 -1.04712817e-15  1.75269324e-14  4.17663622e-16 -2.12885912e-17  4.51317287e-03  3.62777585e-04  1.06014563e-03  3.60858161e-01 
 2.60000000e-01  2.57523472e-04  4.37888008e-02 -1.38518051e-15  1.77062524e-14  5.60394967e-16 -2.86864928e-17  5.61178774e-03  4.50240062e-04  1.31447589e-03  3.60163413e-01 
 2.70000000e-01  3.25080936e-04  4.48095865e-02 -1.83185909e-15  1.79704821e-14  7.50814412e-16 -3.85862701e-17  6.93756780e-03  5.55760835e-04  1.62079468e-03  3.59468665e-01 
 2.80000000e-01  4.08329057e-04  4.60128393e-02 -2.42531901e-15  1.83491403e-14  1.00548448e-15 -5.18644616e-17  8.52423293e-03  6.82044315e-04  1.98674885e-03  3.58773917e-01 
 2.90000000e-01  5.10266501e-04  4.74153871e-02 -3.21739128e-15  1.88823699e-14  1.34642442e-15 -6.96882419e-17  1.04052722e-02  8.31803335e-04  2.41992134e-03  3.58079170e-01 
 3.00000000e-01  6.34242101e-04  4.90318504e-02 -4.27576173e-15  1.96226719e-14  1.80178836e-15 -9.35524852e-17  1.26114744e-02  1.00757776e-03  2.92727046e-03  3.57384422e-01 
 3.10000000e-01  7.83910012e-04  5.08738558e-02 -5.68397996e-15  2.06349823e-14  2.40558326e-15 -1.25266143e-16  1.51678413e-02  1.21150613e-03  3.51443204e-03  3.56689675e-01 
 3.20000000e-01  9.63149532e-04  5.29493697e-02 -7.53737004e-15  2.19935958e-14  3.19562608e-15 -1.66845037e-16  1.80901571e-02  1.44506955e-03  4.18494758e-03  3.55994928e-01 
 3.30000000e-01  1.17594519e-03  5.52621874e-02 -9.92936535e-15  2.37709447e-14  4.20840612e-15 -2.20262843e-16  2.13787015e-02  1.70883596e-03  4.93950967e-03  3.55300180e-01 
 3.40000000e-01  1.42612912e-03  5.78106255e-02 -1.29268683e-14  2.60174687e-14  5.46944689e-15 -2.87003121e-16  2.50082519e-02  2.00212839e-03  5.77502476e-03  3.54605433e-01 
 3.50000000e-01  1.71731507e-03  6.05888929e-02 -1.65768020e-14  2.87735166e-14  6.98813161e-15 -3.67530581e-16  2.89580932e-02  2.32305731e-03  6.68473982e-03  3.53910686e-01 
 3.60000000e-01  2.05275016e-03  6.35876117e-02 -2.08460333e-14  3.20149018e-14  8.74351105e-15 -4.60760791e-16  3.31820817e-02  2.66854851e-03  7.65839063e-03  3.53215939e-01 
 3.70000000e-01  2.43511036e-03  6.67939019e-02 -2.56168503e-14  3.56518413e-14  1.06804126e-14 -5.63771478e-16  3.76199083e-02  3.03442016e-03  8.68252392e-03  3.52521192e-01 
 3.80000000e-01  2.86636583e-03  7.01920741e-02 -3.06930366e-14  3.95333231e-14  1.27139170e-14 -6.72032833e-16  4.22007060e-02  3.41562685e-03  9.74130955e-03  3.51826445e-01 
 3.90000000e-01  3.34769109e-03  7.37644137e-02 -3.58322882e-14  4.34719401e-14  1.47441655e-14 -7.80195738e-16  4.68477295e-02  3.80658764e-03  1.08175906e-02  3.51131699e-01 
 4.00000000e-01  3.87942807e-03  7.74919829e-02 -4.07949234e-14  4.72815358e-14  1.66765349e-14 -8.83174989e-16  5.14834553e-02  4.20155235e-03  1.18940243e-02  3.50436952e-01 
 4.10000000e-01  4.46110321e-03  8.13553782e-02 -4.53890040e-14  5.08123009e-14  1.84389404e-14 -9.77084724e-16  5.60344259e-02  4.59495759e-03  1.29541615e-02  3.49742206e-01 
 4.20000000e-01  5.09149249e-03  8.53353957e-02 -4.94952171e-14  5.39703412e-14  1.99901500e-14 -1.05969366e-15  6.04352738e-02  4.98173073e-03  1.39833407e-02  3.49047459e-01 
 4.30000000e-01  5.76872380e-03  8.94135743e-02 -5.30676420e-14  5.67185806e-14  2.13184214e-14 -1.13035876e-15  6.46315676e-02  5.35751420e-03  1.49693166e-02  3.48352713e-01 
 4.40000000e-01  6.49040292e-03  9.35726061e-02 -5.61178924e-14  5.90646983e-14  2.24340363e-14 -1.18962736e-15  6.85813553e-02  5.71879873e-03  1.59025988e-02  3.47657966e-01 
 4.50000000e-01  7.25374969e-03  9.77966166e-02 -5.86935592e-14  6.10445345e-14  2.33602197e-14 -1.23874906e-15  7.22554871e-02  6.06296915e-03  1.67765192e-02  3.46963220e-01 
 4.60000000e-01  8.05573225e-03  1.02071327e-01 -6.08589451e-14  6.27071765e-14  2.41254582e-14 -1.27926097e-15  7.56369402e-02  6.38827693e-03  1.75870804e-02  3.46268474e-01 
 4.70000000e-01  8.89319009e-03  1.06384121e-01 -6.26814560e-14  6.41043734e-14  2.47583206e-14 -1.31270692e-15  7.87194402e-02  6.69375902e-03  1.83326499e-02  3.45573728e-01 
 4.80000000e-01  9.76294022e-03  1.10724028e-01 -6.42236949e-14  6.52843503e-14  2.52846177e-14 -1.34048284e-15  8.15056759e-02  6.97912391e-03  1.90135671e-02  3.44878982e-01 
 4.90000000e-01  1.06618632e-02  1.15081657e-01 -6.55398585e-14  6.62889563e-14  2.57262461e-14 -1.36377331e-15  8.40053675e-02  7.24462304e-03  1.96317196e-02  3.44184236e-01 
 5.00000000e-01  1.15869688e-02  1.19449087e-01 -6.66748409e-14  6.71529220e-14  2.61010482e-14 -1.38354333e-15  8.62333851e-02  7.49092226e-03  2.01901321e-02  3.43489490e-01 
 5.10000000e-01  1.25354422e-02  1.23819738e-01 -6.76647870e-14  6.79042526e-14  2.64231845e-14 -1.40055811e-15  8.82080497e-02  7.71898302e-03  2.06925965e-02  3.42794745e-01 
 5.20000000e-01  1.35046735e-02  1.28188224e-01 -6.85382749e-14  6.85651193e-14  2.67037035e-14 -1.41541380e-15  8.99496871e-02  7.92995917e-03  2.11433576e-02  3.42099999e-01 
 5.30000000e-01  1.44922735e-02  1.32550215e-01 -6.93176530e-14  6.91528799e-14  2.69511362e-14 -1.42856965e-15  9.14794623e-02  8.12511182e-03  2.15468607e-02  3.41405253e-01 
 5.40000000e-01  1.54960777e-02  1.36902289e-01 -7.00202994e-14  6.96810445e-14  2.71720332e-14 -1.44037718e-15  9.28184851e-02  8.30574236e-03  2.19075580e-02  3.40710508e-01 
 5.50000000e-01  1.65141425e-02  1.41241812e-01 -7.06597046e-14  7.01601096e-14  2.73714154e-14 -1.45110467e-15  9.39871617e-02  8.47314217e-03  2.22297683e-02  3.40015762e-01 
 5.60000000e-01  1.75447360e-02  1.45566805e-01 -7.12463580e-14  7.05982420e-14  2.75531360e-14 -1.46095688e-15  9.50047542e-02  8.62855682e-03  2.25175814e-02  3.39321017e-01 
 5.70000000e-01  1.85863237e-02  1.49875846e-01 -7.17884496e-14  7.10018214e-14  2.77201628e-14 -1.47009045e-15  9.58891094e-02  8.77316226e-03  2.27747992e-02  3.38626272e-01 
 5.80000000e-01  1.96375535e-02  1.54167970e-01 -7.22924150e-14  7.13758627e-14  2.78747958e-14 -1.47862579e-15  9.66565177e-02  8.90805043e-03  2.30049047e-02  3.37931527e-01 
 5.90000000e-01  2.06972386e-02  1.58442588e-01 -7.27633533e-14  7.17243397e-14  2.80188309e-14 -1.48665599e-15  9.73216707e-02  9.03422215e-03  2.32110513e-02  3.37236782e-01 
 6.00000000e-01  2.17643408e-02  1.62699413e-01 -7.32053439e-14  7.20504320e-14  2.81536840e-14 -1.49425365e-15  9.78976873e-02  9.15258527e-03  2.33960675e-02  3.36542037e-01 
 6.10000000e-01  2.28379540e-02  1.66938401e-01 -7.36216861e-14  7.23567105e-14  2.82804835e-14 -1.50147587e-15  9.83961866e-02  9.26395656e-03  2.35624711e-02  3.35847292e-01 
 6.20000000e-01  2.39172890e-02  1.71159699e-01 -7.40150797e-14  7.26452784e-14  2.84001392e-14 -1.50836809e-15  9.88273903e-02  9.36906605e-03  2.37124900e-02  3.35152547e-01 
 6.30000000e-01  2.50016593e-02  1.75363601e-01 -7.43877608e-14  7.29178770e-14  2.85133940e-14 -1.51496683e-15  9.92002400e-02  9.46856289e-03  2.38480857e-02  3.34457802e-01 
 6.40000000e-01  2.60904680e-02  1.79550516e-01 -7.47416044e-14  7.31759654e-14  2.86208624e-14 -1.52130186e-15  9.95225215e-02  9.56302205e-03  2.39709788e-02  3.33763057e-01 
 6.50000000e-01  2.71831960e-02  1.83720931e-01 -7.50782014e-14  7.34207811e-14  2.87230593e-14 -1.52739772e-15  9.98009883e-02  9.65295126e-03  2.40826740e-02  3.33068313e-01 
 6.60000000e-01  2.82793921e-02  1.87875395e-01 -7.53989172e-14  7.36533857e-14  2.88204215e-14 -1.53327492e-15  1.00041480e-01  9.73879791e-03  2.41844847e-02  3.32373568e-01 
 6.70000000e-01  2.93786636e-02  1.92014494e-01 -7.57049369e-14  7.38746995e-14  2.89133241e-14 -1.53895080e-15  1.00249035e-01  9.82095574e-03  2.42775552e-02  3.31678824e-01 
 6.80000000e-01  3.04806680e-02  1.96138837e-01 -7.59972988e-14  7.40855285e-14  2.90020930e-14 -1.54444019e-15  1.00427989e-01  9.89977099e-03  2.43628817e-02  3.30984080e-01 
 6.90000000e-01  3.15851065e-02  2.00249044e-01 -7.62769212e-14  7.42865853e-14  2.90870139e-14 -1.54975597e-15  1.00582070e-01  9.97554810e-03  2.44413313e-02  3.30289335e-01 
 7.00000000e-01  3.26917179e-02  2.04345736e-01 -7.65446225e-14  7.44785042e-14  2.91683399e-14 -1.55490936e-15  1.00714479e-01  1.00485549e-02  2.45136588e-02  3.29594591e-01 
 7.10000000e-01  3.38002727e-02  2.08429527e-01 -7.68011379e-14  7.46618549e-14  2.92462970e-14 -1.55991031e-15  1.00827964e-01  1.01190272e-02  2.45805211e-02  3.28899847e-01 
 7.20000000e-01  3.49105697e-02  2.12501019e-01 -7.70471313e-14  7.48371515e-14  2.93210883e-14 -1.56476765e-15  1.00924884e-01  1.01871730e-02  2.46424912e-02  3.28205103e-01 
 7.30000000e-01  3.60224311e-02  2.16560795e-01 -7.72832062e-14  7.50048612e-14  2.93928979e-14 -1.56948934e-15  1.01007260e-01  1.02531758e-02  2.47000690e-02  3.27510359e-01 
 7.40000000e-01  3.71356996e-02  2.20609422e-01 -7.75099135e-14  7.51654099e-14  2.94618930e-14 -1.57408254e-15  1.01076831e-01  1.03171983e-02  2.47536914e-02  3.26815615e-01 
 7.50000000e-01  3.82502357e-02  2.24647441e-01 -7.77277582e-14  7.53191883e-14  2.95282267e-14 -1.57855379e-15  1.01135089e-01  1.03793847e-02  2.48037411e-02  3.26120871e-01 
 7.60000000e-01  3.93659152e-02  2.28675373e-01 -7.79372052e-14  7.54665557e-14  2.95920396e-14 -1.58290905e-15  1.01183320e-01  1.04398632e-02  2.48505538e-02  3.25426128e-01 
 7.70000000e-01  4.04826267e-02  2.32693712e-01 -7.81386836e-14  7.56078436e-14  2.96534613e-14 -1.58715379e-15  1.01222631e-01  1.04987484e-02  2.48944250e-02  3.24731384e-01 
 7.80000000e-01  4.16002706e-02  2.36702930e-01 -7.83325908e-14  7.57433589e-14  2.97126116e-14 -1.59129306e-15  1.01253977e-01  1.05561427e-02  2.49356152e-02  3.24036640e-01 
 7.90000000e-01  4.27187567e-02  2.40703474e-01 -7.85192957e-14  7.58733865e-14  2.97696015e-14 -1.59533153e-15  1.01278185e-01  1.06121380e-02  2.49743547e-02  3.23341897e-01 
 8.00000000e-01  4.38380038e-02  2.44695768e-01 -7.86991417e-14  7.59981912e-14  2.98245344e-14 -1.59927354e-15  1.01295972e-01  1.06668173e-02  2.50108478e-02  3.22647154e-01 
 8.10000000e-01  4.49579379e-02  2.48680212e-01 -7.88724488e-14  7.61180200e-14  2.98775065e-14 -1.60312313e-15  1.01307962e-01  1.07202554e-02  2.50452762e-02  3.21952410e-01 
 8.20000000e-01  4.60784916e-02  2.52657183e-01 -7.90395160e-14  7.62331036e-14  2.99286076e-14 -1.60688405e-15  1.01314699e-01  1.07725202e-02  2.50778019e-02  3.21257667e-01 
 8.30000000e-01  4.71996032e-02  2.56627039e-01 -7.92006231e-14  7.63436576e-14  2.99779217e-14 -1.61055984e-15  1.01316659e-01  1.08236736e-02  2.51085699e-02  3.20562924e-01 
 8.40000000e-01  4.83212162e-02  2.60590116e-01 -7.93560325e-14  7.64498842e-14  3.00255277e-14 -1.61415378e-15  1.01314259e-01  1.08737721e-02  2.51377103e-02  3.19868181e-01 
 8.50000000e-01  4.94432785e-02  2.64546730e-01 -7.95059902e-14  7.65519731e-14  3.00714994e-14 -1.61766900e-15  1.01307867e-01  1.09228673e-02  2.51653404e-02  3.19173438e-01 
 8.60000000e-01  5.05657417e-02  2.68497180e-01 -7.96507278e-14  7.66501026e-14  3.01159062e-14 -1.62110839e-15  1.01297811e-01  1.09710068e-02  2.51915660e-02  3.18478695e-01 
 8.70000000e-01  5.16885612e-02  2.72441747e-01 -7.97904630e-14  7.67444404e-14  3.01588134e-14 -1.62447471e-15  1.01284378e-01  1.10182344e-02  2.52164829e-02  3.17783952e-01 
 8.80000000e-01  5.28116955e-02  2.76380694e-01 -7.99254011e-14  7.68351445e-14  3.02002827e-14 -1.62777056e-15  1.01267827e-01  1.10645906e-02  2.52401781e-02  3.17089209e-01 
 8.90000000e-01  5.39351058e-02  2.80314272e-01 -8.00557357e-14  7.69223640e-14  3.02403720e-14 -1.63099839e-15  1.01248389e-01  1.11101129e-02  2.52627310e-02  3.16394467e-01 
 9.00000000e-01  5.50587560e-02  2.84242713e-01 -8.01816497e-14  7.70062395e-14  3.02791363e-14 -1.63416052e-15  1.01226270e-01  1.11548364e-02  2.52842140e-02  3.15699724e-01 
 9.10000000e-01  5.61826121e-02  2.88166239e-01 -8.03033161e-14  7.70869040e-14  3.03166273e-14 -1.63725916e-15  1.01201659e-01  1.11987934e-02  2.53046934e-02  3.15004982e-01 
 9.20000000e-01  5.73066423e-02  2.92085057e-01 -8.04208984e-14  7.71644834e-14  3.03528941e-14 -1.64029639e-15  1.01174725e-01  1.12420144e-02  2.53242302e-02  3.14310239e-01 
 9.30000000e-01  5.84308168e-02  2.95999364e-01 -8.05345516e-14  7.72390968e-14  3.03879831e-14 -1.64327419e-15  1.01145622e-01  1.12845279e-02  2.53428804e-02  3.13615497e-01 
 9.40000000e-01  5.95551073e-02  2.99909343e-01 -8.06444228e-14  7.73108571e-14  3.04219385e-14 -1.64619446e-15  1.01114490e-01  1.13263604e-02  2.53606958e-02  3.12920754e-01 
 9.50000000e-01  6.06794873e-02  3.03815168e-01 -8.07506514e-14  7.73798715e-14  3.04548019e-14 -1.64905899e-15  1.01081459e-01  1.13675370e-02  2.53777239e-02  3.12226012e-01 
 9.60000000e-01  6.18039316e-02  3.07717004e-01 -8.08533698e-14  7.74462417e-14  3.04866132e-14 -1.65186950e-15  1.01046647e-01  1.14080814e-02  2.53940092e-02  3.11531270e-01 
 9.70000000e-01  6.29284164e-02  3.11615005e-01 -8.09527041e-14  7.75100644e-14  3.05174100e-14 -1.65462761e-15  1.01010162e-01  1.14480156e-02  2.54095927e-02  3.10836528e-01 
 9.80000000e-01  6.40529193e-02  3.15509317e-01 -8.10487739e-14  7.75714315e-14  3.05472282e-14 -1.65733489e-15  1.00972107e-01  1.14873608e-02  2.54245125e-02  3.10141786e-01 
 9.90000000e-01  6.51774187e-02  3.19400078e-01 -8.11416933e-14  7.76304306e-14  3.05761021e-14 -1.65999283e-15  1.00932573e-01  1.15261366e-02  2.54388042e-02  3.09447044e-01 
 1.00000000e+00  6.63018945e-02  3.23287419e-01 -8.12315709e-14  7.76871450e-14  3.06040641e-14 -1.66260285e-15  1.00891648e-01  1.15643619e-02  2.54525008e-02  3.08752302e-01 
 1.01000000e+00  6.74263272e-02  3.27171463e-01 -8.13185104e-14  7.77416540e-14  3.06311453e-14 -1.66516632e-15  1.00849412e-01  1.16020544e-02  2.54656334e-02  3.08057561e-01 
 1.02000000e+00  6.85506985e-02  3.31052327e-01 -8.14026106e-14  7.77940335e-14  3.06573753e-14 -1.66768455e-15  1.00805941e-01  1.16392309e-02  2.54782307e-02  3.07362819e-01 
 1.03000000e+00  6.96749909e-02  3.34930120e-01 -8.14839657e-14  7.78443558e-14  3.06827824e-14 -1.67015879e-15  1.00761304e-01  1.16759075e-02  2.54903199e-02  3.06668077e-01 
 1.04000000e+00  7.07991876e-02  3.38804948e-01 -8.15626660e-14  7.78926899e-14  3.07073936e-14 -1.67259025e-15  1.00715568e-01  1.17120992e-02  2.55019262e-02  3.05973336e-01 
 1.05000000e+00  7.19232727e-02  3.42676910e-01 -8.16387976e-14  7.79391018e-14  3.07312347e-14 -1.67498007e-15  1.00668795e-01  1.17478206e-02  2.55130736e-02  3.05278595e-01 
 1.06000000e+00  7.30472309e-02  3.46546099e-01 -8.17124428e-14  7.79836546e-14  3.07543304e-14 -1.67732937e-15  1.00621042e-01  1.17830853e-02  2.55237842e-02  3.04583853e-01 
 1.07000000e+00  7.41710477e-02  3.50412605e-01 -8.17836806e-14  7.80264086e-14  3.07767043e-14 -1.67963921e-15  1.00572364e-01  1.18179065e-02  2.55340792e-02  3.03889112e-01 
 1.08000000e+00  7.52947091e-02  3.54276511e-01 -8.18525864e-14  7.80674217e-14  3.07983791e-14 -1.68191062e-15  1.00522811e-01  1.18522966e-02  2.55439783e-02  3.03194371e-01 
 1.09000000e+00  7.64182017e-02  3.58137899e-01 -8.19192326e-14  7.81067492e-14  3.08193765e-14 -1.68414460e-15  1.00472433e-01  1.18862675e-02  2.55535000e-02  3.02499630e-01 
 1.10000000e+00  7.75415127e-02  3.61996843e-01 -8.19836886e-14  7.81444442e-14  3.08397171e-14 -1.68634207e-15  1.00421274e-01  1.19198305e-02  2.55626618e-02  3.01804889e-01 
 1.11000000e+00  7.86646297e-02  3.65853417e-01 -8.20460209e-14  7.81805575e-14  3.08594211e-14 -1.68850397e-15  1.00369378e-01  1.19529965e-02  2.55714804e-02  3.01110148e-01 
 1.12000000e+00  7.97875410e-02  3.69707689e-01 -8.21062933e-14  7.82151379e-14  3.08785075e-14 -1.69063118e-15  1.00316784e-01  1.19857757e-02  2.55799713e-02  3.00415407e-01 
 1.13000000e+00  8.09102351e-02  3.73559724e-01 -8.21645672e-14  7.82482322e-14  3.08969947e-14 -1.69272455e-15  1.00263531e-01  1.20181782e-02  2.55881491e-02  2.99720666e-01 
 1.14000000e+00  8.20327010e-02  3.77409583e-01 -8.22209013e-14  7.82798855e-14  3.09149003e-14 -1.69478489e-15  1.00209656e-01  1.20502133e-02  2.55960279e-02  2.99025925e-01 
 1.15000000e+00  8.31549282e-02  3.81257327e-01 -8.22753524e-14  7.83101409e-14  3.09322413e-14 -1.69681301e-15  1.00155191e-01  1.20818901e-02  2.56036207e-02  2.98331185e-01 
