 v-sweep         @M1[id]         @M1[vdsat]      @M1[cgs]        @M1[cgg]        @M1[cds]        @m1[cdd]        @m1[gm]         @m1[gds]        @m1[gmbs]       @m1[vth]       
 5.00000000e-02  3.03468992e-07  4.61165830e-02 -2.83522949e-17  1.76459630e-14  2.70850220e-18 -3.52293505e-21  8.44624265e-06  2.63678192e-06  1.94944151e-06  3.17893391e-01 
 6.00000000e-02  4.31118180e-07  4.61414344e-02 -3.09061498e-17  1.75491324e-14  3.81355797e-18 -7.41427095e-20  1.19318451e-05  2.69862094e-06  2.73489532e-06  3.17051945e-01 
 7.00000000e-02  6.00331577e-07  4.61752803e-02 -3.45655907e-17  1.74547573e-14  5.36619195e-18 -1.66877674e-19  1.65100655e-05  2.94580520e-06  3.75981527e-06  3.16210499e-01 
 8.00000000e-02  8.25815689e-07  4.62210242e-02 -3.97821713e-17  1.73631392e-14  7.54969427e-18 -2.94149277e-19  2.25500084e-05  3.40862053e-06  5.10382628e-06  3.15369053e-01 
 9.00000000e-02  1.12675883e-06  4.62824276e-02 -4.71865681e-17  1.72747185e-14  1.06198297e-17 -4.72329197e-19  3.05238864e-05  4.11840128e-06  6.86803138e-06  3.14527608e-01 
 1.00000000e-01  1.52806369e-06  4.63643250e-02 -5.76551532e-17  1.71901258e-14  1.49325614e-17 -7.23743296e-19  4.10317339e-05  5.12052135e-06  9.18013929e-06  3.13686162e-01 
 1.10000000e-01  2.06195031e-06  4.64728739e-02 -7.23969737e-17  1.71102482e-14  2.09808518e-17 -1.07913058e-18  5.48330465e-05  6.47998935e-06  1.22010112e-05  3.12844717e-01 
 1.20000000e-01  2.76995031e-06  4.66158362e-02 -9.30640832e-17  1.70363153e-14  2.94426314e-17 -1.58076377e-18  7.28851575e-05  8.28482201e-06  1.61325779e-05  3.12003272e-01 
 1.30000000e-01  3.70535624e-06  4.68028847e-02 -1.21886285e-16  1.69700032e-14  4.12418680e-17 -2.28639093e-18  9.63893472e-05  1.06496674e-05  2.12273497e-05  3.11161827e-01 
 1.40000000e-01  4.93621923e-06  4.70459203e-02 -1.61828792e-16  1.69135575e-14  5.76244829e-17 -3.27413169e-18  1.26846481e-04  1.37205245e-05  2.77999091e-05  3.10320383e-01 
 1.50000000e-01  6.54901447e-06  4.73593776e-02 -2.16770795e-16  1.68699336e-14  8.02514780e-17 -4.64849464e-18  1.66124558e-04  1.76808708e-05  3.62408969e-05  3.09478938e-01 
 1.60000000e-01  8.65312194e-06  4.77604892e-02 -2.91711257e-16  1.68429580e-14  1.11315186e-16 -6.54790364e-18  2.16540838e-04  2.27594016e-05  4.70340577e-05  3.08637494e-01 
 1.70000000e-01  1.13862978e-05  4.82694725e-02 -3.93036813e-16  1.68375400e-14  1.53694405e-16 -9.15474399e-18  2.80960883e-04  2.92395420e-05  6.07768250e-05  3.07796050e-01 
 1.80000000e-01  1.49213285e-05  4.89095945e-02 -5.28944247e-16  1.68600022e-14  2.11182861e-16 -1.27101294e-17  3.62915113e-04  3.74707705e-05  7.82045668e-05  3.06954606e-01 
 1.90000000e-01  1.94740489e-05  4.97070704e-02 -7.10187440e-16  1.69186625e-14  2.88849573e-16 -1.75371396e-17  4.66729792e-04  4.78814808e-05  1.00217829e-04  3.06113162e-01 
 2.00000000e-01  2.53128390e-05  5.06907548e-02 -9.51374020e-16  1.70248402e-14  3.93605487e-16 -2.40773172e-17  5.97662837e-04  6.09925501e-05  1.27910581e-04  3.05271718e-01 
 2.10000000e-01  3.27695616e-05  5.18915960e-02 -1.27301115e-15  1.71944445e-14  5.35038242e-16 -3.29444620e-17  7.62025655e-04  7.74299676e-05  1.62595571e-04  3.04430274e-01 
 2.20000000e-01  4.22516402e-05  5.33418399e-02 -1.70435980e-15  1.74501922e-14  7.26522789e-16 -4.49963465e-17  9.67261221e-04  9.79338854e-05  2.05820696e-04  3.03588831e-01 
 2.30000000e-01  5.42545935e-05  5.50739967e-02 -2.28690861e-15  1.78243177e-14  9.86516193e-16 -6.14186267e-17  1.22193836e-03  1.23360501e-04  2.59368195e-04  3.02747388e-01 
 2.40000000e-01  6.93738690e-05  5.71196085e-02 -3.07791537e-15  1.83613517e-14  1.33979129e-15 -8.38053018e-17  1.53561659e-03  1.54672599e-04  3.25227409e-04  3.01905945e-01 
 2.50000000e-01  8.83143301e-05  5.95078872e-02 -4.15293255e-15  1.91201348e-14  1.81813424e-15 -1.14205148e-16  1.91853934e-03  1.92914782e-04  4.05532580e-04  3.01064502e-01 
 2.60000000e-01  1.11895363e-04  6.22643165e-02 -5.60550544e-15  2.01736583e-14  2.45972512e-15 -1.55083537e-16  2.38112998e-03  2.39170741e-04  5.02460590e-04  3.00223059e-01 
 2.70000000e-01  1.41049442e-04  6.54093259e-02 -7.54145951e-15  2.16047178e-14  3.30612787e-15 -2.09129709e-16  2.93329524e-03  2.94502500e-04  6.18089730e-04  2.99381617e-01 
 2.80000000e-01  1.76812258e-04  6.89571564e-02 -1.00648818e-14  2.34951020e-14  4.39579355e-15 -2.78837562e-16  3.58358209e-03  3.59875142e-04  7.54228923e-04  2.98540174e-01 
 2.90000000e-01  2.20303234e-04  7.29150216e-02 -1.32541230e-14  2.59069683e-14  5.75370530e-15 -3.65834544e-16  4.33827696e-03  4.36074367e-04  9.12235520e-04  2.97698732e-01 
 3.00000000e-01  2.72696436e-04  7.72826508e-02 -1.71303483e-14  2.88583109e-14  7.37876595e-15 -4.70061224e-16  5.20056976e-03  5.23627384e-04  1.09284639e-03  2.96857290e-01 
 3.10000000e-01  3.35183279e-04  8.20522599e-02 -2.16284778e-14  3.23001238e-14  9.23348873e-15 -5.89097339e-16  6.16991643e-03  6.22738910e-04  1.29604918e-03  2.96015848e-01 
 3.20000000e-01  4.08929827e-04  8.72089536e-02 -2.65865543e-14  3.61077593e-14  1.12424517e-14 -7.18055713e-16  7.24171583e-03  7.33252876e-04  1.52101671e-03  2.95174406e-01 
 3.30000000e-01  4.95032535e-04  9.27315149e-02 -3.17665230e-14  4.00967064e-14  1.33037081e-14 -8.50319945e-16  8.40737025e-03  8.54646722e-04  1.76611815e-03  2.94332965e-01 
 3.40000000e-01  5.94476660e-04  9.85935010e-02 -3.69036964e-14  4.40608533e-14  1.53104608e-14 -9.78953773e-16  9.65473468e-03  9.86059754e-04  2.02900745e-03  2.93491523e-01 
 3.50000000e-01  7.08101337e-04  1.04764536e-01 -4.17641295e-14  4.78171870e-14  1.71737197e-14 -1.09817857e-15  1.09688933e-02  1.12635134e-03  2.30677651e-03  2.92650082e-01 
 3.60000000e-01  8.36574285e-04  1.11211680e-01 -4.61850198e-14  5.12375243e-14  1.88364068e-14 -1.20429560e-15  1.23331514e-02  1.27418012e-03  2.59615058e-03  2.91808641e-01 
 3.70000000e-01  9.80377794e-04  1.17900773e-01 -5.00861960e-14  5.42578269e-14  2.02754266e-14 -1.29582330e-15  1.37301053e-02  1.42809286e-03  2.89369862e-03  2.90967200e-01 
 3.80000000e-01  1.13980613e-03  1.24797640e-01 -5.34576679e-14  5.68688145e-14  2.14947895e-14 -1.37304911e-15  1.51426589e-02  1.58661188e-03  3.19603284e-03  2.90125759e-01 
 3.90000000e-01  1.31497324e-03  1.31869125e-01 -5.63363238e-14  5.90979924e-14  2.25153878e-14 -1.43736136e-15  1.65548818e-02  1.74831159e-03  3.49997698e-03  2.89284319e-01 
 4.00000000e-01  1.50582861e-03  1.39083892e-01 -5.87830493e-14  6.09918823e-14  2.33657368e-14 -1.49064344e-15  1.79526471e-02  1.91187833e-03  3.80269144e-03  2.88442878e-01 
 4.10000000e-01  1.71217879e-03  1.46412996e-01 -6.08657892e-14  6.26028001e-14  2.40755160e-14 -1.53485095e-15  1.93240262e-02  2.07615090e-03  4.10175129e-03  2.87601438e-01 
 4.20000000e-01  1.93371211e-03  1.53830251e-01 -6.26493605e-14  6.39808595e-14  2.46719370e-14 -1.57177398e-15  2.06594566e-02  2.24014248e-03  4.39518029e-03  2.86759998e-01 
 4.30000000e-01  2.17002408e-03  1.61312392e-01 -6.41905681e-14  6.51701001e-14  2.51781976e-14 -1.60293615e-15  2.19517192e-02  2.40304624e-03  4.68144830e-03  2.85918558e-01 
 4.40000000e-01  2.42064193e-03  1.68839106e-01 -6.55367163e-14  6.62072716e-14  2.56132003e-14 -1.62957661e-15  2.31957745e-02  2.56422862e-03  4.95944174e-03  2.85077118e-01 
 4.50000000e-01  2.68504682e-03  1.76392930e-01 -6.67259621e-14  6.71220659e-14  2.59919124e-14 -1.65267423e-15  2.43885087e-02  2.72321401e-03  5.22841657e-03  2.84235678e-01 
 4.60000000e-01  2.96269309e-03  1.83959075e-01 -6.77884855e-14  6.79379998e-14  2.63259752e-14 -1.67298804e-15  2.55284325e-02  2.87966457e-03  5.48794247e-03  2.83394239e-01 
 4.70000000e-01  3.25302425e-03  1.91525207e-01 -6.87478898e-14  6.86734859e-14  2.66243494e-14 -1.69110004e-15  2.66153693e-02  3.03335800e-03  5.73784482e-03  2.82552800e-01 
 4.80000000e-01  3.55548561e-03  1.99081187e-01 -6.96225378e-14  6.93428625e-14  2.68938992e-14 -1.70745388e-15  2.76501572e-02  3.18416551e-03  5.97814916e-03  2.81711361e-01 
 4.90000000e-01  3.86953388e-03  2.06618811e-01 -7.04267066e-14  6.99572856e-14  2.71398797e-14 -1.72238721e-15  2.86343811e-02  3.33203146e-03  6.20903124e-03  2.80869922e-01 
 5.00000000e-01  4.19464412e-03  2.14131558e-01 -7.11715292e-14  7.05254594e-14  2.73663250e-14 -1.73615735e-15  2.95701417e-02  3.47695533e-03  6.43077389e-03  2.80028483e-01 
 5.10000000e-01  4.53031439e-03  2.21614348e-01 -7.18657373e-14  7.10542134e-14  2.75763496e-14 -1.74896130e-15  3.04598665e-02  3.61897648e-03  6.64373150e-03  2.79187044e-01 
 5.20000000e-01  4.87606853e-03  2.29063319e-01 -7.25162350e-14  7.15489486e-14  2.77723771e-14 -1.76095082e-15  3.13061577e-02  3.75816172e-03  6.84830149e-03  2.78345606e-01 
 5.30000000e-01  5.23145756e-03  2.36475632e-01 -7.31285357e-14  7.20139780e-14  2.79563122e-14 -1.77224387e-15  3.21116768e-02  3.89459541e-03  7.04490235e-03  2.77504167e-01 
 5.40000000e-01  5.59605993e-03  2.43849291e-01 -7.37070919e-14  7.24527844e-14  2.81296690e-14 -1.78293306e-15  3.28790591e-02  4.02837190e-03  7.23395721e-03  2.76662729e-01 
 5.50000000e-01  5.96948101e-03  2.51182999e-01 -7.42555432e-14  7.28682135e-14  2.82936663e-14 -1.79309196e-15  3.36108533e-02  4.15958988e-03  7.41588209e-03  2.75821291e-01 
 5.60000000e-01  6.35135208e-03  2.58476019e-01 -7.47769020e-14  7.32626201e-14  2.84492983e-14 -1.80277975e-15  3.43094814e-02  4.28834827e-03  7.59107779e-03  2.74979853e-01 
 5.70000000e-01  6.74132884e-03  2.65728069e-01 -7.52736934e-14  7.36379767e-14  2.85973868e-14 -1.81204468e-15  3.49772149e-02  4.41474349e-03  7.75992477e-03  2.74138416e-01 
 5.80000000e-01  7.13908987e-03  2.72939225e-01 -7.57480596e-14  7.39959560e-14  2.87386208e-14 -1.82092660e-15  3.56161622e-02  4.53886762e-03  7.92278023e-03  2.73296978e-01 
 5.90000000e-01  7.54433487e-03  2.80109846e-01 -7.62018394e-14  7.43379926e-14  2.88735849e-14 -1.82945891e-15  3.62282655e-02  4.66080731e-03  8.07997677e-03  2.72455541e-01 
 6.00000000e-01  7.95678299e-03  2.87240508e-01 -7.66366281e-14  7.46653307e-14  2.90027812e-14 -1.83766990e-15  3.68153036e-02  4.78064332e-03  8.23182230e-03  2.71614104e-01 
 6.10000000e-01  8.37617116e-03  2.94331952e-01 -7.70538232e-14  7.49790593e-14  2.91266463e-14 -1.84558390e-15  3.73788986e-02  4.89845031e-03  8.37860065e-03  2.70772667e-01 
 6.20000000e-01  8.80225250e-03  3.01385038e-01 -7.74546601e-14  7.52801407e-14  2.92455630e-14 -1.85322201e-15  3.79205260e-02  5.01429705e-03  8.52057283e-03  2.69931230e-01 
 6.30000000e-01  9.23479487e-03  3.08400716e-01 -7.78402391e-14  7.55694313e-14  2.93598705e-14 -1.86060274e-15  3.84415252e-02  5.12824670e-03  8.65797849e-03  2.69089793e-01 
 6.40000000e-01  9.67357946e-03  3.15379990e-01 -7.82115468e-14  7.58476989e-14  2.94698712e-14 -1.86774249e-15  3.89431117e-02  5.24035723e-03  8.79103758e-03  2.68248356e-01 
 6.50000000e-01  1.01183996e-02  3.22323902e-01 -7.85694737e-14  7.61156358e-14  2.95758372e-14 -1.87465588e-15  3.94263885e-02  5.35068189e-03  8.91995208e-03  2.67406920e-01 
 6.60000000e-01  1.05690598e-02  3.29233511e-01 -7.89148272e-14  7.63738698e-14  2.96780142e-14 -1.88135607e-15  3.98923576e-02  5.45926969e-03  9.04490767e-03  2.66565484e-01 
 6.70000000e-01  1.10253743e-02  3.36109882e-01 -7.92483431e-14  7.66229725e-14  2.97766257e-14 -1.88785495e-15  4.03419306e-02  5.56616590e-03  9.16607532e-03  2.65724048e-01 
 6.80000000e-01  1.14871668e-02  3.42954070e-01 -7.95706943e-14  7.68634666e-14  2.98718756e-14 -1.89416333e-15  4.07759386e-02  5.67141250e-03  9.28361284e-03  2.64882612e-01 
 6.90000000e-01  1.19542691e-02  3.49767118e-01 -7.98824988e-14  7.70958317e-14  2.99639506e-14 -1.90029109e-15  4.11951414e-02  5.77504856e-03  9.39766622e-03  2.64041176e-01 
 7.00000000e-01  1.24265208e-02  3.56550047e-01 -8.01843252e-14  7.73205096e-14  3.00530228e-14 -1.90624732e-15  4.16002356e-02  5.87711071e-03  9.50837088e-03  2.63199741e-01 
 7.10000000e-01  1.29037685e-02  3.63303854e-01 -8.04766989e-14  7.75379076e-14  3.01392504e-14 -1.91204035e-15  4.19918615e-02  5.97763337e-03  9.61585285e-03  2.62358305e-01 
 7.20000000e-01  1.33858652e-02  3.70029506e-01 -8.07601061e-14  7.77484029e-14  3.02227802e-14 -1.91767792e-15  4.23706102e-02  6.07664916e-03  9.72022970e-03  2.61516870e-01 
 7.30000000e-01  1.38726702e-02  3.76727941e-01 -8.10349977e-14  7.79523453e-14  3.03037480e-14 -1.92316718e-15  4.27370289e-02  6.17418906e-03  9.82161150e-03  2.60675435e-01 
 7.40000000e-01  1.43640479e-02  3.83400066e-01 -8.13017930e-14  7.81500598e-14  3.03822800e-14 -1.92851477e-15  4.30916260e-02  6.27028272e-03  9.92010154e-03  2.59834000e-01 
 7.50000000e-01  1.48598683e-02  3.90046756e-01 -8.15608823e-14  7.83418488e-14  3.04584937e-14 -1.93372689e-15  4.34348753e-02  6.36495860e-03  1.00157971e-02  2.58992565e-01 
 7.60000000e-01  1.53600061e-02  3.96668852e-01 -8.18126298e-14  7.85279947e-14  3.05324986e-14 -1.93880932e-15  4.37672202e-02  6.45824415e-03  1.01087900e-02  2.58151130e-01 
 7.70000000e-01  1.58643406e-02  4.03267166e-01 -8.20573757e-14  7.87087609e-14  3.06043972e-14 -1.94376747e-15  4.40890765e-02  6.55016595e-03  1.01991670e-02  2.57309696e-01 
 7.80000000e-01  1.63727554e-02  4.09842478e-01 -8.22954385e-14  7.88843941e-14  3.06742851e-14 -1.94860640e-15  4.44008357e-02  6.64074979e-03  1.02870106e-02  2.56468262e-01 
 7.90000000e-01  1.68851380e-02  4.16395536e-01 -8.25271164e-14  7.90551251e-14  3.07422520e-14 -1.95333088e-15  4.47028672e-02  6.73002081e-03  1.03723991e-02  2.55626828e-01 
 8.00000000e-01  1.74013801e-02  4.22927062e-01 -8.27526893e-14  7.92211706e-14  3.08083820e-14 -1.95794537e-15  4.49955206e-02  6.81800355e-03  1.04554073e-02  2.54785394e-01 
 8.10000000e-01  1.79213767e-02  4.29437748e-01 -8.29724200e-14  7.93827340e-14  3.08727542e-14 -1.96245408e-15  4.52791273e-02  6.90472201e-03  1.05361062e-02  2.53943960e-01 
 8.20000000e-01  1.84450264e-02  4.35928258e-01 -8.31865559e-14  7.95400066e-14  3.09354428e-14 -1.96686098e-15  4.55540027e-02  6.99019971e-03  1.06145641e-02  2.53102526e-01 
 8.30000000e-01  1.89722311e-02  4.42399231e-01 -8.33953297e-14  7.96931685e-14  3.09965178e-14 -1.97116984e-15  4.58204467e-02  7.07445971e-03  1.06908461e-02  2.52261093e-01 
 8.40000000e-01  1.95028959e-02  4.48851282e-01 -8.35989609e-14  7.98423893e-14  3.10560452e-14 -1.97538418e-15  4.60787458e-02  7.15752465e-03  1.07650148e-02  2.51419659e-01 
 8.50000000e-01  2.00369288e-02  4.55285000e-01 -8.37976565e-14  7.99878291e-14  3.11140871e-14 -1.97950736e-15  4.63291737e-02  7.23941678e-03  1.08371302e-02  2.50578226e-01 
 8.60000000e-01  2.05742410e-02  4.61700954e-01 -8.39916121e-14  8.01296391e-14  3.11707022e-14 -1.98354257e-15  4.65719921e-02  7.32015798e-03  1.09072500e-02  2.49736793e-01 
 8.70000000e-01  2.11147460e-02  4.68099688e-01 -8.41810126e-14  8.02679620e-14  3.12259463e-14 -1.98749282e-15  4.68074518e-02  7.39976975e-03  1.09754296e-02  2.48895360e-01 
 8.80000000e-01  2.16583605e-02  4.74481729e-01 -8.43660328e-14  8.04029329e-14  3.12798717e-14 -1.99136097e-15  4.70357935e-02  7.47827324e-03  1.10417225e-02  2.48053928e-01 
 8.90000000e-01  2.22050033e-02  4.80847582e-01 -8.45468385e-14  8.05346799e-14  3.13325282e-14 -1.99514975e-15  4.72572481e-02  7.55568926e-03  1.11061802e-02  2.47212495e-01 
 9.00000000e-01  2.27545959e-02  4.87197735e-01 -8.47235867e-14  8.06633240e-14  3.13839631e-14 -1.99886176e-15  4.74720373e-02  7.63203825e-03  1.11688523e-02  2.46371063e-01 
 9.10000000e-01  2.33070622e-02  4.93532655e-01 -8.48964265e-14  8.07889805e-14  3.14342212e-14 -2.00249945e-15  4.76803745e-02  7.70734034e-03  1.12297866e-02  2.45529630e-01 
 9.20000000e-01  2.38623284e-02  4.99852797e-01 -8.50654992e-14  8.09117583e-14  3.14833448e-14 -2.00606519e-15  4.78824648e-02  7.78161529e-03  1.12890294e-02  2.44688198e-01 
 9.30000000e-01  2.44203227e-02  5.06158596e-01 -8.52309393e-14  8.10317612e-14  3.15313744e-14 -2.00956121e-15  4.80785056e-02  7.85488255e-03  1.13466253e-02  2.43846766e-01 
 9.40000000e-01  2.49809757e-02  5.12450473e-01 -8.53928747e-14  8.11490877e-14  3.15783484e-14 -2.01298966e-15  4.82686869e-02  7.92716120e-03  1.14026175e-02  2.43005335e-01 
 9.50000000e-01  2.55442199e-02  5.18728835e-01 -8.55514268e-14  8.12638316e-14  3.16243033e-14 -2.01635260e-15  4.84531920e-02  7.99847002e-03  1.14570476e-02  2.42163903e-01 
 9.60000000e-01  2.61099898e-02  5.24994073e-01 -8.57067117e-14  8.13760822e-14  3.16692740e-14 -2.01965197e-15  4.86321973e-02  8.06882741e-03  1.15099559e-02  2.41322472e-01 
 9.70000000e-01  2.66782218e-02  5.31246567e-01 -8.58588396e-14  8.14859244e-14  3.17132936e-14 -2.02288966e-15  4.88058727e-02  8.13825147e-03  1.15613814e-02  2.40481040e-01 
 9.80000000e-01  2.72488543e-02  5.37486684e-01 -8.60079158e-14  8.15934395e-14  3.17563938e-14 -2.02606746e-15  4.89743823e-02  8.20675995e-03  1.16113618e-02  2.39639609e-01 
 9.90000000e-01  2.78218273e-02  5.43714777e-01 -8.61540407e-14  8.16987047e-14  3.17986046e-14 -2.02918709e-15  4.91378842e-02  8.27437026e-03  1.16599337e-02  2.38798178e-01 
 1.00000000e+00  2.83970826e-02  5.49931188e-01 -8.62973102e-14  8.18017939e-14  3.18399550e-14 -2.03225021e-15  4.92965308e-02  8.34109947e-03  1.17071322e-02  2.37956748e-01 
 1.01000000e+00  2.89745636e-02  5.56136251e-01 -8.64378159e-14  8.19027775e-14  3.18804724e-14 -2.03525840e-15  4.94504693e-02  8.40696432e-03  1.17529918e-02  2.37115317e-01 
 1.02000000e+00  2.95542154e-02  5.62330285e-01 -8.65756453e-14  8.20017230e-14  3.19201833e-14 -2.03821317e-15  4.95998415e-02  8.47198125e-03  1.17975454e-02  2.36273886e-01 
 1.03000000e+00  3.01359847e-02  5.68513600e-01 -8.67108824e-14  8.20986947e-14  3.19591127e-14 -2.04111600e-15  4.97447846e-02  8.53616632e-03  1.18408253e-02  2.35432456e-01 
 1.04000000e+00  3.07198196e-02  5.74686499e-01 -8.68436071e-14  8.21937543e-14  3.19972848e-14 -2.04396828e-15  4.98854307e-02  8.59953529e-03  1.18828624e-02  2.34591026e-01 
 1.05000000e+00  3.13056696e-02  5.80849273e-01 -8.69738962e-14  8.22869609e-14  3.20347226e-14 -2.04677137e-15  5.00219073e-02  8.66210359e-03  1.19236870e-02  2.33749596e-01 
 1.06000000e+00  3.18934858e-02  5.87002204e-01 -8.71018233e-14  8.23783709e-14  3.20714483e-14 -2.04952656e-15  5.01543378e-02  8.72388635e-03  1.19633283e-02  2.32908166e-01 
 1.07000000e+00  3.24832205e-02  5.93145567e-01 -8.72274589e-14  8.24680386e-14  3.21074831e-14 -2.05223512e-15  5.02828411e-02  8.78489835e-03  1.20018145e-02  2.32066736e-01 
 1.08000000e+00  3.30748274e-02  5.99279627e-01 -8.73508706e-14  8.25560158e-14  3.21428473e-14 -2.05489824e-15  5.04075320e-02  8.84515406e-03  1.20391732e-02  2.31225307e-01 
 1.09000000e+00  3.36682615e-02  6.05404642e-01 -8.74721232e-14  8.26423525e-14  3.21775603e-14 -2.05751710e-15  5.05285216e-02  8.90466767e-03  1.20754311e-02  2.30383878e-01 
 1.10000000e+00  3.42634788e-02  6.11520863e-01 -8.75912790e-14  8.27270963e-14  3.22116410e-14 -2.06009280e-15  5.06459169e-02  8.96345304e-03  1.21106139e-02  2.29542448e-01 
 1.11000000e+00  3.48604368e-02  6.17628532e-01 -8.77083978e-14  8.28102932e-14  3.22451073e-14 -2.06262643e-15  5.07598216e-02  9.02152372e-03  1.21447467e-02  2.28701019e-01 
 1.12000000e+00  3.54590940e-02  6.23727886e-01 -8.78235371e-14  8.28919874e-14  3.22779766e-14 -2.06511905e-15  5.08703357e-02  9.07889299e-03  1.21778540e-02  2.27859590e-01 
 1.13000000e+00  3.60594099e-02  6.29819153e-01 -8.79367522e-14  8.29722212e-14  3.23102654e-14 -2.06757164e-15  5.09775558e-02  9.13557381e-03  1.22099592e-02  2.27018162e-01 
 1.14000000e+00  3.66613454e-02  6.35902556e-01 -8.80480960e-14  8.30510353e-14  3.23419897e-14 -2.06998519e-15  5.10815754e-02  9.19157888e-03  1.22410854e-02  2.26176733e-01 
 1.15000000e+00  3.72648622e-02  6.41978312e-01 -8.81576199e-14  8.31284690e-14  3.23731649e-14 -2.07236064e-15  5.11824847e-02  9.24692060e-03  1.22712548e-02  2.25335305e-01 
